!Created with skrf (http://scikit-rf.org).
# MHz S RI R 50.0 
!freq ReS11 ImS11 ReS21 ImS21 ReS12 ImS12 ReS22 ImS22
1.0 0.999556014178821 -0.027648290658195 0.000305471204861 0.011101948909526 0.00030547120486 0.011101948909524 0.999564010208409 -0.027357686346472
! Port Impedance 50.00000000000000 0.00000000000000 50.00000000000000 0.00000000000000
2.0 0.998225644894044 -0.055251785423885 0.001220418362722 0.022165899289117 0.001220418362722 0.022165899289117 0.998257597384202 -0.054671314427019
! Port Impedance 50.00000000000000 0.00000000000000 50.00000000000000 0.00000000000000
3.0 0.996013607084419 -0.082765990182188 0.002740457212336 0.033154129332703 0.002740457212337 0.033154129332703 0.996085416567737 -0.081897106896372
! Port Impedance 50.00000000000000 0.00000000000000 50.00000000000000 0.00000000000000
4.0 0.992927727186586 -0.110146971824656 0.004858332160613 0.044029461578913 0.004858332160614 0.044029461578913 0.993055174945087 -0.108991843867831
! Port Impedance 50.00000000000000 0.00000000000000 50.00000000000000 0.00000000000000
5.0 0.988978852842235 -0.137351634356704 0.00756399081894 0.054755527262878 0.00756399081894 0.054755527262878 0.989177556351926 -0.135913132244642
! Port Impedance 50.00000000000000 0.00000000000000 50.00000000000000 0.00000000000000
6.0 0.984180747777116 -0.164337982202791 0.010844687327788 0.065297017767567 0.010844687327788 0.065297017767567 0.984466117502642 -0.162619663142952
! Port Impedance 50.00000000000000 0.00000000000000 50.00000000000000 0.00000000000000
7.0 0.978549960067835 -0.191065366966128 0.014685111750522 0.075619921327269 0.014685111750523 0.075619921327269 0.978937157872822 -0.189071454730105
! Port Impedance 50.00000000000000 0.00000000000000 50.00000000000000 0.00000000000000
8.0 0.97210566584388 -0.217494715805844 0.019067543240185 0.085691741847935 0.019067543240186 0.085691741847935 0.972609565604518 -0.215230077162735
! Port Impedance 50.00000000000000 0.00000000000000 50.00000000000000 0.00000000000000
9.000000000000002 0.964869491338635 -0.243588738987341 0.023972024241227 0.095481697219655 0.023972024241227 0.095481697219655 0.965504642167537 -0.241058857043776
! Port Impedance 50.00000000000000 0.00000000000000 50.00000000000000 0.00000000000000
10.000000000000002 0.956865316428558 -0.269312114436718 0.029376552676833 0.10496089495427 0.029376552676833 0.104960894954271 0.957645908815231 -0.266523059228077
! Port Impedance 50.00000000000000 0.00000000000000 50.00000000000000 0.00000000000000
11.0 0.948119062984983 -0.294631647601427 0.035257288851673 0.114102483477598 0.035257288851674 0.114102483477598 0.949058898091506 -0.291590044300425
! Port Impedance 50.00000000000000 0.00000000000000 50.00000000000000 0.00000000000000
12.0 0.938658471486599 -0.319516405431855 0.04158877366589 0.122881777918444 0.041588773665891 0.122881777918444 0.939770933778976 -0.31622940055912
! Port Impedance 50.00000000000000 0.00000000000000 50.00000000000000 0.00000000000000
13.000000000000002 0.928512869386009 -0.343937823817295 0.048344154687859 0.131276359750749 0.04834415468786 0.131276359750749 0.929810902726973 -0.340413049849224
! Port Impedance 50.00000000000000 0.00000000000000 50.00000000000000 0.00000000000000
14.000000000000002 0.917712934689268 -0.367869788315405 0.055495416666908 0.139266150146186 0.055495416666909 0.139266150146186 0.919209021965481 -0.364115327087787
! Port Impedance 50.00000000000000 0.00000000000000 50.00000000000000 0.00000000000000
15.0 0.906290458097347 -0.391288688493492 0.063013613176113 0.1468334573693 0.063013613176113 0.1468334573693 0.907996604406597 -0.387313033787331
! Port Impedance 50.00000000000000 0.00000000000000 50.00000000000000 0.00000000000000
16.0 0.894278106880634 -0.414173446640755 0.070869096256389 0.153962998981804 0.07086909625639 0.153962998981804 0.896205826238458 -0.409985466369661
! Port Impedance 50.00000000000000 0.00000000000000 50.00000000000000 0.00000000000000
17.0 0.881709193421758 -0.436505522003737 0.079031741154986 0.160641900017512 0.079031741154986 0.160641900017512 0.883869498952623 -0.432114420287366
! Port Impedance 50.00000000000000 0.00000000000000 50.00000000000000 0.00000000000000
18.000000000000004 0.868617451079567 -0.458268892035489 0.087471163556088 0.166859668613399 0.087471163556089 0.166859668613399 0.871020848542675 -0.453684171600147
! Port Impedance 50.00000000000000 0.00000000000000 50.00000000000000 0.00000000000000
19.000000000000004 0.855036819708835 -0.479450012428133 0.096156926990407 0.172608150870394 0.096156926990408 0.172608150870394 0.85769330424269 -0.47468143758571
! Port Impedance 50.00000000000000 0.00000000000000 50.00000000000000 0.00000000000000
20.0 0.841001242829032 -0.500037757916044 0.105058738470029 0.17788146692324 0.10505873847003 0.17788146692324 0.843920298731464 -0.495095318431997
! Port Impedance 50.00000000000000 0.00000000000000 50.00000000000000 0.00000000000000
21.0 0.826544478081489 -0.520023345993056 0.114146630737276 0.182675930356697 0.114146630737276 0.182675930356697 0.829735081428505 -0.514917222095883
! Port Impedance 50.00000000000000 0.00000000000000 50.00000000000000 0.00000000000000
22.000000000000004 0.811699922258916 -0.539400245783908 0.123391129871866 0.18698995319918 0.123391129871867 0.18698995319918 0.815170546145206 -0.534140774538174
! Port Impedance 50.00000000000000 0.00000000000000 50.00000000000000 0.00000000000000
23.0 0.796500451843243 -0.558164074351131 0.132763407345977 0.190823938764502 0.132763407345978 0.190823938764502 0.800259074013188 -0.552761717582138
! Port Impedance 50.00000000000000 0.00000000000000 50.00000000000000 0.00000000000000
24.0 0.780978279655584 -0.576312482708869 0.142235415946688 0.19418016460152 0.142235415946688 0.19418016460152 0.785032392284578 -0.570777796633192
! Port Impedance 50.00000000000000 0.00000000000000 50.00000000000000 0.00000000000000
25.0 0.76516482791231 -0.593845033760574 0.151780009292932 0.19706265775614 0.151780009292932 0.19706265775614 0.769521449293763 -0.588188640443607
! Port Impedance 50.00000000000000 0.00000000000000 50.00000000000000 0.00000000000000
26.000000000000004 0.749090617698716 -0.610763074284677 0.161371044954385 0.199477064456792 0.161371044954386 0.199477064456792 0.753756305591991 -0.604995635014631
! Port Impedance 50.00000000000000 0.00000000000000 50.00000000000000 0.00000000000000
27.000000000000004 0.732785174620446 -0.627069602968148 0.170983471429446 0.201430516210145 0.170983471429447 0.201430516210145 0.737766041017508 -0.62120179360728
! Port Impedance 50.00000000000000 0.00000000000000 50.00000000000000 0.00000000000000
28.0 0.716276950174836 -0.64276913633962 0.180593399453824 0.202931494144725 0.180593399453824 0.202931494144725 0.721578677255526 -0.636811624679508
! Port Impedance 50.00000000000000 0.00000000000000 50.00000000000000 0.00000000000000
29.0 0.699593258200258 -0.657867574285734 0.190178158299186 0.203989693274745 0.190178158299186 0.203989693274744 0.705221115242216 -0.651830999424435
! Port Impedance 50.00000000000000 0.00000000000000 50.00000000000000 0.00000000000000
30.000000000000004 0.682760225612325 -0.672372066658933 0.199716337859559 0.204615888176712 0.199716337859559 0.204615888176712 0.688719086652837 -0.666267020371945
! Port Impedance 50.00000000000000 0.00000000000000 50.00000000000000 0.00000000000000
31.0 0.665802756518504 -0.68629088229779 0.209187817449811 0.204821801389636 0.209187817449812 0.204821801389636 0.672097118562055 -0.680127892375561
! Port Impedance 50.00000000000000 0.00000000000000 50.00000000000000 0.00000000000000
32.0 0.648744508717593 -0.699633281598076 0.218573782317133 0.204619975663517 0.218573782317134 0.204619975663516 0.655378510306506 -0.693422797095164
! Port Impedance 50.00000000000000 0.00000000000000 50.00000000000000 0.00000000000000
33.0 0.63160788153339 -0.712409393590065 0.227856728925798 0.204023651000072 0.227856728925798 0.204023651000071 0.638585321512196 -0.706161771919766
! Port Impedance 50.00000000000000 0.00000000000000 50.00000000000000 0.00000000000000
34.0 0.614414013901074 -0.724630098302902 0.237020460104838 0.203046647254984 0.237020460104839 0.203046647254984 0.621738370221567 -0.718355594099202
! Port Impedance 50.00000000000000 0.00000000000000 50.00000000000000 0.00000000000000
35.0 0.597182791616602 -0.73630691503159 0.246050071155794 0.201703252906049 0.246050071155794 0.201703252906048 0.604857240046834 -0.730015670691091
! Port Impedance 50.00000000000000 0.00000000000000 50.00000000000000 0.00000000000000
36.00000000000001 0.5799328626691 -0.747451896969928 0.254931928006034 0.200008120438273 0.254931928006035 0.200008120438273 0.587960295287622 -0.741153934777954
! Port Impedance 50.00000000000000 0.00000000000000 50.00000000000000 0.00000000000000
37.00000000000001 0.56268165962369 -0.758077532518768 0.263653638459944 0.197976168658166 0.263653638459944 0.197976168658165 0.571064702978135 -0.751782748272816
! Port Impedance 50.00000000000000 0.00000000000000 50.00000000000000 0.00000000000000
38.0 0.545445427986098 -0.768196653507208 0.272204017577139 0.195622492118584 0.272204017577139 0.195622492118584 0.554186460871564 -0.761914811500745
! Port Impedance 50.00000000000000 0.00000000000000 50.00000000000000 0.00000000000000
39.0 0.528239259703979 -0.777822350332033 0.280573048112972 0.192962277734755 0.280573048112972 0.192962277734755 0.537340430417106 -0.771563079648021
! Port Impedance 50.00000000000000 0.00000000000000 50.00000000000000 0.00000000000000
40.0 0.511077130785208 -0.786967894088297 0.288751836953145 0.190010728560215 0.288751836953145 0.190010728560215 0.520540373848852 -0.780740686055263
! Port Impedance 50.00000000000000 0.00000000000000 50.00000000000000 0.00000000000000
41.0 0.493971942283845 -0.795646665536659 0.296732568358921 0.186782994621311 0.296732568358922 0.18678299462131 0.503798994565938 -0.789460872266017
! Port Impedance 50.00000000000000 0.00000000000000 50.00000000000000 0.00000000000000
42.0 0.476935563860159 -0.803872090762899 0.304508454797744 0.183294110632165 0.304508454797744 0.183294110632165 0.487127980053391 -0.79773692466426
! Port Impedance 50.00000000000000 0.00000000000000 50.00000000000000 0.00000000000000
43.0 0.459978879227913 -0.811657583302316 0.31207368605467 0.179558940357388 0.312073686054671 0.179558940357388 0.470538046661593 -0.805582117481192
! Port Impedance 50.00000000000000 0.00000000000000 50.00000000000000 0.00000000000000
44.00000000000001 0.443111832866739 -0.819016492460374 0.319423377250829 0.17559212734413 0.319423377250829 0.17559212734413 0.45403898563157 -0.813009661906529
! Port Impedance 50.00000000000000 0.00000000000000 50.00000000000000 0.00000000000000
45.0 0.426343477446498 -0.825962057526176 0.326553516325795 0.171408051710409 0.326553516325795 0.171408051710409 0.437639709821288 -0.820032661005382
! Port Impedance 50.00000000000000 0.00000000000000 50.00000000000000 0.00000000000000
46.0 0.409682021477232 -0.832507367550105 0.333460911473801 0.167020792651425 0.333460911473801 0.167020792651425 0.421348300653737 -0.826664070116979
! Port Impedance 50.00000000000000 0.00000000000000 50.00000000000000 0.00000000000000
47.0 0.393134876761784 -0.838665326340269 0.340143138959805 0.162444096308781 0.340143138959805 0.162444096308781 0.405172054870207 -0.832916662394959
! Port Impedance 50.00000000000000 0.00000000000000 50.00000000000000 0.00000000000000
48.0 0.376708705288056 -0.844448622322855 0.346598491681242 0.15769134863807 0.346598491681242 0.15769134863807 0.389117530731132 -0.838802999139649
! Port Impedance 50.00000000000000 0.00000000000000 50.00000000000000 0.00000000000000
49.0 0.360409465253609 -0.849869702908311 0.352825928785115 0.15277555290701 0.352825928785115 0.15277555290701 0.37319059336174 -0.844335404569549
! Port Impedance 50.00000000000000 0.00000000000000 50.00000000000000 0.00000000000000
50.0 0.344242455966724 -0.854940753007371 0.35882502659833 0.147709311458442 0.358825026598329 0.147709311458442 0.357396458990463 -0.849525944681344
! Port Impedance 50.00000000000000 0.00000000000000 50.00000000000000 0.00000000000000
51.0 0.328212361414972 -0.859673677347328 0.36459593108175 0.142504811378922 0.36459593108175 0.142504811378921 0.341739737874244 -0.854386409854032
! Port Impedance 50.00000000000000 0.00000000000000 50.00000000000000 0.00000000000000
52.00000000000001 0.312323292334835 -0.864080086248978 0.370139311975621 0.137173813723635 0.370139311975621 0.137173813723635 0.326224475746773 -0.858928300862658
! Port Impedance 50.00000000000000 0.00000000000000 50.00000000000000 0.00000000000000
53.00000000000001 0.296578826654003 -0.868171284537399 0.375456318765439 0.13172764596121 0.375456318765439 0.13172764596121 0.310854193663162 -0.863162817979638
! Port Impedance 50.00000000000000 0.00000000000000 50.00000000000000 0.00000000000000
54.0 0.280982048211779 -0.871958263274576 0.380548538563108 0.126177197316911 0.380548538563107 0.126177197316911 0.295631926147929 -0.867100852856375
! Port Impedance 50.00000000000000 0.00000000000000 50.00000000000000 0.00000000000000
55.0 0.265535583692893 -0.875451694018348 0.385417955967962 0.120532916709246 0.385417955967961 0.120532916709246 0.280560257582524 -0.870752982893982
! Port Impedance 50.00000000000000 0.00000000000000 50.00000000000000 0.00000000000000
56.0 0.250241637735917 -0.878661925329549 0.390066914945848 0.114804812992564 0.390066914945847 0.114804812992564 0.265641356794194 -0.874129467829152
! Port Impedance 50.00000000000000 0.00000000000000 50.00000000000000 0.00000000000000
57.0 0.235102026199994 -0.881598981267297 0.39449808274156 0.109002457236459 0.39449808274156 0.109002457236459 0.25087700983012 -0.877240248278986
! Port Impedance 50.00000000000000 0.00000000000000 50.00000000000000 0.00000000000000
58.0 0.220118207592705 -0.884272561630658 0.398714415820368 0.103134986791214 0.398714415820368 0.103134986791214 0.236268650919637 -0.880094946006583
! Port Impedance 50.00000000000000 0.00000000000000 50.00000000000000 0.00000000000000
59.00000000000001 0.205291312678098 -0.886692043723124 0.402719127817778 0.097211110907001 0.402719127817778 0.097211110907001 0.221817391643259 -0.882702865687198
! Port Impedance 50.00000000000000 0.00000000000000 50.00000000000000 0.00000000000000
60.00000000000001 0.190622172297354 -0.888866485434324 0.406515659462824 0.091239117692677 0.406515659462823 0.091239117692677 0.207524048340514 -0.885072997972397
! Port Impedance 50.00000000000000 0.00000000000000 50.00000000000000 0.00000000000000
61.0 0.176111343445576 -0.890804629450762 0.410107650428798 0.085226882217702 0.410107650428798 0.085226882217702 0.193389167799439 -0.887214023666826
! Port Impedance 50.00000000000000 0.00000000000000 50.00000000000000 0.00000000000000
62.0 0.161759133657055 -0.892514908424171 0.413498913056102 0.079181875577773 0.413498913056101 0.079181875577773 0.179413051279309 -0.889134318848742
! Port Impedance 50.00000000000000 0.00000000000000 50.00000000000000 0.00000000000000
63.0 0.147565623758275 -0.894005450942126 0.416693407884657 0.073111174761056 0.416693407884657 0.073111174761056 0.165595776924975 -0.890841960781263
! Port Impedance 50.00000000000000 0.00000000000000 50.00000000000000 0.00000000000000
64.0 0.133530689053145 -0.895284088160714 0.419695220927783 0.067021473167409 0.419695220927782 0.067021473167409 0.151937220636375 -0.89234473447619
! Port Impedance 50.00000000000000 0.00000000000000 50.00000000000000 0.00000000000000
65.0 0.119654019008719 -0.896358360973334 0.422508542615358 0.060919091647597 0.422508542615358 0.060919091647597 0.138437075460434 -0.893650139786423
! Port Impedance 50.00000000000000 0.00000000000000 50.00000000000000 0.00000000000000
66.0 0.10593513551213 -0.897235527603139 0.425137648331383 0.054809989943179 0.425137648331383 0.054809989943179 0.125094869575072 -0.894765398916079
! Port Impedance 50.00000000000000 0.00000000000000 50.00000000000000 0.00000000000000
67.00000000000001 0.09237340977089 -0.897922571518978 0.427586880469365 0.048699778420578 0.427586880469364 0.048699778420578 0.111909982936352 -0.895697464249753
! Port Impedance 50.00000000000000 0.00000000000000 50.00000000000000 0.00000000000000
68.0 0.078968077929143 -0.898426209586291 0.429860631928308 0.04259373000466 0.429860631928308 0.04259373000466 0.098881662660343 -0.896453026413641
! Port Impedance 50.00000000000000 0.00000000000000 50.00000000000000 0.00000000000000
69.0 0.065718255472185 -0.898752900374968 0.431963330972172 0.036496792228129 0.431963330972172 0.036496792228129 0.08600903721089 -0.897038522491733
! Port Impedance 50.00000000000000 0.00000000000000 50.00000000000000 0.00000000000000
70.0 0.052622950490595 -0.898908852555915 0.433899427376437 0.03041359932315 0.433899427376436 0.03041359932315 0.073291129463613 -0.897460144329854
! Port Impedance 50.00000000000000 0.00000000000000 50.00000000000000 0.00000000000000
71.00000000000001 0.039681075873897 -0.898900033326966 0.435673379786756 0.024348484290809 0.435673379786756 0.024348484290809 0.060726868714984 -0.897723846869079
! Port Impedance 50.00000000000000 0.00000000000000 50.00000000000000 0.00000000000000
72.00000000000001 0.026891460501698 -0.898732176816823 0.437289644216449 0.018305490892494 0.437289644216449 0.018305490892494 0.04831510170347 -0.897835356457991
! Port Impedance 50.00000000000000 0.00000000000000 50.00000000000000 0.00000000000000
73.00000000000001 0.014252859498118 -0.898410792423047 0.438752663611677 0.012288385514914 0.438752663611677 0.012288385514914 0.036054602707532 -0.897800179100459
! Port Impedance 50.00000000000000 0.00000000000000 50.00000000000000 0.00000000000000
74.0 0.001763963612816 -0.897941173046669 0.440066858415602 0.006300668867465 0.440066858415602 0.006300668867465 0.023944082782875 -0.897623608602129
! Port Impedance 50.00000000000000 0.00000000000000 50.00000000000000 0.00000000000000
75.0 -0.01057659221077 -0.897328403191972 0.441236618065366 0.000345587476874 0.441236618065366 0.000345587476874 0.011982198198668 -0.897310734584603
! Port Impedance 50.00000000000000 0.00000000000000 50.00000000000000 0.00000000000000
76.0 -0.022770221022172 -0.896577366905239 0.442266293358539 -0.005573855050024 0.442266293358539 -0.005573855050024 0.00016755813079 -0.896866450341566
! Port Impedance 50.00000000000000 0.00000000000000 50.00000000000000 0.00000000000000
77.0 -0.034818376749801 -0.895692755531032 0.443160189628456 -0.011454887021432 0.443160189628456 -0.011454887021432 -0.011501268341432 -0.896295460515723
! Port Impedance 50.00000000000000 0.00000000000000 50.00000000000000 0.00000000000000
78.0 -0.046722547736519 -0.894679075268672 0.44392256067089 -0.017294957928105 0.44392256067089 -0.017294957928105 -0.023025745859313 -0.895602288579586
! Port Impedance 50.00000000000000 0.00000000000000 50.00000000000000 0.00000000000000
79.0 -0.058484250871044 -0.893540654515483 0.444557603367171 -0.023091728008465 0.44455760336717 -0.023091728008465 -0.034407367024114 -0.894791284106729
! Port Impedance 50.00000000000000 0.00000000000000 50.00000000000000 0.00000000000000
80.0 -0.07010502627358 -0.892281650986344 0.445069452952221 -0.02884305811262 0.44506945295222 -0.02884305811262 -0.045647647156814 -0.893866629823577
! Port Impedance 50.00000000000000 0.00000000000000 50.00000000000000 0.00000000000000
81.0 -0.081586432489112 -0.890906058602303 0.445462178877965 -0.034546999884441 0.445462178877964 -0.034546999884441 -0.056748119579418 -0.892832348433911
! Port Impedance 50.00000000000000 0.00000000000000 50.00000000000000 0.00000000000000
82.0 -0.092930042148544 -0.889417714143064 0.445739781226835 -0.040201786258694 0.445739781226834 -0.040201786258694 -0.067710331338888 -0.891692309212138
! Port Impedance 50.00000000000000 0.00000000000000 50.00000000000000 0.00000000000000
