!Created with skrf (http://scikit-rf.org).
# MHz S RI R 50.0 
!freq ReS11 ImS11 ReS21 ImS21 ReS12 ImS12 ReS22 ImS22
1.0 0.998880936733753 -0.04068734529368 0.000977297926182 0.024092703000143 0.000977297926179 0.024092703000138 0.998894599127854 -0.040350547374715
! Port Impedance 50.00000000000000 0.00000000000000 50.00000000000000 0.00000000000000
2.0 0.995535903202413 -0.081176363971918 0.003897195986517 0.047994526438392 0.003897195986515 0.047994526438392 0.995590438135219 -0.080504750737358
! Port Impedance 50.00000000000000 0.00000000000000 50.00000000000000 0.00000000000000
3.0 0.990001017285714 -0.121272458328018 0.008724050285804 0.071518298131255 0.008724050285804 0.071518298131255 0.990123303733292 -0.120269962704029
! Port Impedance 50.00000000000000 0.00000000000000 50.00000000000000 0.00000000000000
4.0 0.982335337772 -0.160788340444828 0.015399588700218 0.094484103852839 0.015399588700218 0.09448410385284 0.982551709803763 -0.159460778969877
! Port Impedance 50.00000000000000 0.00000000000000 50.00000000000000 0.00000000000000
5.0 0.972619219491344 -0.199547325587888 0.023844545358598 0.116722559706521 0.023844545358598 0.116722559706522 0.972955269275243 -0.197902301567632
! Port Impedance 50.00000000000000 0.00000000000000 50.00000000000000 0.00000000000000
6.0 0.960952131558962 -0.237386219564119 0.033960831324501 0.138077678176628 0.033960831324501 0.138077678176629 0.961432532396363 -0.235433000010389
! Port Impedance 50.00000000000000 0.00000000000000 50.00000000000000 0.00000000000000
7.0 0.947450046892902 -0.274157706569566 0.045634131478452 0.158409237055743 0.045634131478453 0.158409237055744 0.948098399978028 -0.271907077442116
! Port Impedance 50.00000000000000 0.00000000000000 50.00000000000000 0.00000000000000
8.0 0.932242527015509 -0.309732175252187 0.058736804325279 0.177594589260675 0.05873680432528 0.177594589260675 0.93308123467134 -0.307196280038667
! Port Impedance 50.00000000000000 0.00000000000000 50.00000000000000 0.00000000000000
9.000000000000002 0.915469632529996 -0.343998953229259 0.073130954957057 0.195529883926705 0.073130954957058 0.195529883926705 0.916519799515353 -0.341191120213429
! Port Impedance 50.00000000000000 0.00000000000000 50.00000000000000 0.00000000000000
10.000000000000002 0.897278787232812 -0.376866951930436 0.088671553805697 0.212130700660116 0.088671553805698 0.212130700660116 0.898560150552861 -0.373801515496977
! Port Impedance 50.00000000000000 0.00000000000000 50.00000000000000 0.00000000000000
11.0 0.877821713685229 -0.408264751955796 0.105209483908619 0.227332127019509 0.10520948390862 0.227332127019509 0.879352600265664 -0.404956873010821
! Port Impedance 50.00000000000000 0.00000000000000 50.00000000000000 0.00000000000000
12.0 0.857251541909006 -0.43814018238055 0.122594415496544 0.241088332432845 0.122594415496545 0.241088332432845 0.859048852569816 -0.434605672483586
! Port Impedance 50.00000000000000 0.00000000000000 50.00000000000000 0.00000000000000
13.000000000000002 0.83572017269494 -0.466459464544016 0.140677426797616 0.253371708784619 0.140677426797617 0.25337170878462 0.837799390119196 -0.462714617707684
! Port Impedance 50.00000000000000 0.00000000000000 50.00000000000000 0.00000000000000
14.000000000000002 0.813375954877979 -0.493206001477291 0.159313311987479 0.264171658475339 0.15931331198748 0.264171658475339 0.815751172731788 -0.489267436854812
! Port Impedance 50.00000000000000 0.00000000000000 50.00000000000000 0.00000000000000
15.0 0.790361713726678 -0.518378898523128 0.178362539320836 0.273493115133565 0.178362539320837 0.273493115133565 0.793045683748863 -0.514263416427567
! Port Impedance 50.00000000000000 0.00000000000000 50.00000000000000 0.00000000000000
16.0 0.766813146875112 -0.541991299634133 0.197692843106253 0.281354881097249 0.197692843106255 0.281354881097249 0.769817340605732 -0.537715752566797
! Port Impedance 50.00000000000000 0.00000000000000 50.00000000000000 0.00000000000000
17.0 0.742857586128892 -0.564068618363104 0.217180451200948 0.287787860332626 0.21718045120095 0.287787860332626 0.746192267960523 -0.559649798011622
! Port Impedance 50.00000000000000 0.00000000000000 50.00000000000000 0.00000000000000
18.000000000000004 0.718613108698992 -0.584646733885093 0.236710964413792 0.292833256822982 0.236710964413794 0.292833256822981 0.722287417083621 -0.580101274413525
! Port Impedance 50.00000000000000 0.00000000000000 50.00000000000000 0.00000000000000
19.000000000000004 0.694187970244191 -0.6037702117138 0.256179915327427 0.296540797830121 0.256179915327428 0.296540797830121 0.6982100041389 -0.599114509125841
! Port Impedance 50.00000000000000 0.00000000000000 50.00000000000000 0.00000000000000
20.0 0.669680324482293 -0.621490597181842 0.275493041636906 0.29896702988972 0.275493041636907 0.29896702988972 0.674057232436477 -0.616740744102077
! Port Impedance 50.00000000000000 0.00000000000000 50.00000000000000 0.00000000000000
21.0 0.645178189757102 -0.63786481814905 0.294566313456092 0.300173723848024 0.294566313456095 0.300173723848023 0.64991625940309 -0.633036553036434
! Port Impedance 50.00000000000000 0.00000000000000 50.00000000000000 0.00000000000000
22.000000000000004 0.620759621355154 -0.652953722474695 0.313325755629068 0.30022641436751 0.313325755629069 0.300226414367509 0.625864367437809 -0.648062392050807
! Port Impedance 50.00000000000000 0.00000000000000 50.00000000000000 0.00000000000000
23.0 0.596493049006272 -0.666820766010589 0.331707105446948 0.299193089593468 0.331707105446949 0.299193089593467 0.601969298455048 -0.6618812995422
! Port Impedance 50.00000000000000 0.00000000000000 50.00000000000000 0.00000000000000
24.0 0.572437741313368 -0.679530858517197 0.349655343870274 0.297143038354807 0.349655343870275 0.297143038354806 0.578289714205161 -0.67455775252743
! Port Impedance 50.00000000000000 0.00000000000000 50.00000000000000 0.00000000000000
25.0 0.548644362312356 -0.691149368083894 0.367124134914967 0.294145855484349 0.367124134914968 0.294145855484349 0.554875747898836 -0.686156680052348
! Port Impedance 50.00000000000000 0.00000000000000 50.00000000000000 0.00000000000000
26.000000000000004 0.525155589500918 -0.701741279329698 0.384075203748012 0.290270600553138 0.384075203748013 0.290270600553136 0.531769616728473 -0.696742629005487
! Port Impedance 50.00000000000000 0.00000000000000 50.00000000000000 0.00000000000000
27.000000000000004 0.502006767113475 -0.711370496764737 0.400477679608398 0.285585101448444 0.400477679608399 0.285585101448444 0.509006269333924 -0.706379073766267
! Port Impedance 50.00000000000000 0.00000000000000 50.00000000000000 0.00000000000000
28.0 0.479226572865351 -0.720099282042269 0.416307425256178 0.280155391570008 0.416307425256178 0.280155391570007 0.486614046605966 -0.715127858543488
! Port Impedance 50.00000000000000 0.00000000000000 50.00000000000000 0.00000000000000
29.0 0.456837680625215 -0.727987812234898 0.431546370426676 0.274045267839468 0.431546370426677 0.274045267839467 0.464615338458703 -0.723048759642945
! Port Impedance 50.00000000000000 0.00000000000000 50.00000000000000 0.00000000000000
30.000000000000004 0.434857405360169 -0.735093845528835 0.446181862902651 0.26731595597611 0.446181862902651 0.267315955976109 0.443027223035444 -0.730199154184454
! Port Impedance 50.00000000000000 0.00000000000000 50.00000000000000 0.00000000000000
31.0 0.413298320147744 -0.741472480657141 0.460206047381761 0.260025869419359 0.460206047381762 0.260025869419358 0.421862078234891 -0.736633781713141
! Port Impedance 50.00000000000000 0.00000000000000 50.00000000000000 0.00000000000000
32.0 0.39216883802828 -0.747175996814913 0.473615279351603 0.252230448698311 0.473615279351603 0.252230448698311 0.401128158395401 -0.742404585568665
! Port Impedance 50.00000000000000 0.00000000000000 50.00000000000000 0.00000000000000
33.0 0.371473753954756 -0.752253761582381 0.486409578690666 0.243982068805135 0.486409578690666 0.243982068805134 0.380830131459344 -0.747560621640338
! Port Impedance 50.00000000000000 0.00000000000000 50.00000000000000 0.00000000000000
34.0 0.351214744271398 -0.756752195298312 0.498592125668854 0.235330003166007 0.498592125668854 0.235330003166006 0.360969573961467 -0.752148023110984
! Port Impedance 50.00000000000000 0.00000000000000 50.00000000000000 0.00000000000000
35.0 0.331390822449154 -0.760714781663595 0.510168800387385 0.226320433776122 0.510168800387384 0.226320433776121 0.341545422848017 -0.756210010927322
! Port Impedance 50.00000000000000 0.00000000000000 50.00000000000000 0.00000000000000
36.00000000000001 0.311998751662657 -0.764182115149876 0.521147765429704 0.216996498462454 0.521147765429704 0.216996498462454 0.322554384332246 -0.759786940845351
! Port Impedance 50.00000000000000 0.00000000000000 50.00000000000000 0.00000000000000
37.00000000000001 0.293033415123984 -0.767191977346546 0.531539090541484 0.207398367136631 0.531539090541484 0.207398367136631 0.303991301007686 -0.762916379096671
! Port Impedance 50.00000000000000 0.00000000000000 50.00000000000000 0.00000000000000
38.0 0.274488146206861 -0.769779435217014 0.541354417469712 0.197563340181063 0.541354417469712 0.197563340181063 0.285849479082591 -0.765633199787401
! Port Impedance 50.00000000000000 0.00000000000000 50.00000000000000 0.00000000000000
39.0 0.256355020687705 -0.771976955383776 0.550606662627823 0.187525963064466 0.550606662627823 0.187525963064466 0.268120978060433 -0.767969698189853
! Port Impedance 50.00000000000000 0.00000000000000 50.00000000000000 0.00000000000000
40.0 0.238625113749771 -0.773814529491206 0.559309754952561 0.177318152253206 0.559309754952561 0.177318152253206 0.250796865529649 -0.769955715005399
! Port Impedance 50.00000000000000 0.00000000000000 50.00000000000000 0.00000000000000
41.0 0.221288724569524 -0.775319806531997 0.567478406181498 0.166969328313834 0.567478406181497 0.166969328313833 0.233867439795705 -0.771618767544308
! Port Impedance 50.00000000000000 0.00000000000000 50.00000000000000 0.00000000000000
42.0 0.204335571306722 -0.776518228791288 0.575127910727409 0.156506552858329 0.575127910727409 0.156506552858328 0.217322423206707 -0.772984184486464
! Port Impedance 50.00000000000000 0.00000000000000 50.00000000000000 0.00000000000000
43.0 0.187754959325802 -0.777433168700881 0.582273972365116 0.145954666634142 0.582273972365116 0.145954666634142 0.201151128937134 -0.774075241552876
! Port Impedance 50.00000000000000 0.00000000000000 50.00000000000000 0.00000000000000
44.00000000000001 0.171535925343421 -0.778086064469731 0.588932555045647 0.135336426616693 0.588932555045647 0.135336426616693 0.185342603917944 -0.774913295967219
! Port Impedance 50.00000000000000 0.00000000000000 50.00000000000000 0.00000000000000
45.0 0.155667360077466 -0.778496552831619 0.595119755286162 0.124672640442994 0.595119755286162 0.124672640442994 0.169885750458997 -0.775517918065072
! Port Impedance 50.00000000000000 0.00000000000000 50.00000000000000 0.00000000000000
46.0 0.140138111803148 -0.778682597656256 0.600851693747486 0.113982296925661 0.600851693747486 0.113982296925661 0.154769428948463 -0.775907018808041
! Port Impedance 50.00000000000000 0.00000000000000 50.00000000000000 0.00000000000000
47.0 0.124937073044026 -0.778660613506715 0.606144423787928 0.103282691721823 0.606144423787928 0.103282691721823 0.139982543836634 -0.776096972293717
! Port Impedance 50.00000000000000 0.00000000000000 50.00000000000000 0.00000000000000
48.0 0.11005325244085 -0.778445583503709 0.611013854965291 0.092589547507785 0.611013854965291 0.092589547507785 0.125514114928443 -0.776102732627644
! Port Impedance 50.00000000000000 0.00000000000000 50.00000000000000 0.00000000000000
49.0 0.095475833656645 -0.778051171083826 0.615475689641881 0.081917128235818 0.61547568964188 0.081917128235818 0.111353335826085 -0.775937944747928
! Port Impedance 50.00000000000000 0.00000000000000 50.00000000000000 0.00000000000000
50.0 0.081194222996601 -0.777489825421363 0.619545371025416 0.07127834723117 0.619545371025416 0.071278347231169 0.097489621185017 -0.775615048974052
! Port Impedance 50.00000000000000 0.00000000000000 50.00000000000000 0.00000000000000
51.0 0.067198087249804 -0.776772880428731 0.623238041148864 0.06068486903215 0.623238041148864 0.06068486903215 0.08391264427679 -0.775145379195373
! Port Impedance 50.00000000000000 0.00000000000000 50.00000000000000 0.00000000000000
52.00000000000001 0.053477383098339 -0.775910647364121 0.626568507452159 0.050147204989083 0.626568507452159 0.050147204989083 0.070612366191027 -0.774539254727685
! Port Impedance 50.00000000000000 0.00000000000000 50.00000000000000 0.00000000000000
53.00000000000001 0.040022379289238 -0.774912501162617 0.629551216777384 0.039674802726521 0.629551216777384 0.039674802726521 0.057579057863619 -0.773806065952486
! Port Impedance 50.00000000000000 0.00000000000000 50.00000000000000 0.00000000000000
54.0 0.026823672626704 -0.773786960672787 0.63220023572582 0.029276129636285 0.632200235725821 0.029276129636285 0.044803315975157 -0.772954353919558
! Port Impedance 50.00000000000000 0.00000000000000 50.00000000000000 0.00000000000000
55.0 0.01387219871608 -0.772541763028505 0.63452923644987 0.01895875061967 0.63452923644987 0.01895875061967 0.032276073646067 -0.771991884139974
! Port Impedance 50.00000000000000 0.00000000000000 50.00000000000000 0.00000000000000
56.0 0.001159238276908 -0.771183932419242 0.636551487065901 0.008729400328438 0.6365514870659 0.008729400328439 0.019988606736461 -0.770925714830372
! Port Impedance 50.00000000000000 0.00000000000000 50.00000000000000 0.00000000000000
57.0 -0.011323580260309 -0.769719843543559 0.63827984597569 -0.001405949822921 0.63827984597569 -0.00140594982292 0.007932536459387 -0.76976225989046
! Port Impedance 50.00000000000000 0.00000000000000 50.00000000000000 0.00000000000000
58.0 -0.023584281251031 -0.768155280042917 0.639726759475178 -0.011442029588965 0.639726759475178 -0.011442029588965 -0.003900171075613 -0.768507346907958
! Port Impedance 50.00000000000000 0.00000000000000 50.00000000000000 0.00000000000000
59.00000000000001 -0.035630544886693 -0.766495488217744 0.640904262110322 -0.02137421247906 0.640904262110322 -0.021374212479059 -0.015517207852933 -0.767166270490049
! Port Impedance 50.00000000000000 0.00000000000000 50.00000000000000 0.00000000000000
60.00000000000001 -0.047469712330008 -0.764745226326984 0.641823979311846 -0.031198462707558 0.641823979311846 -0.031198462707558 -0.026925929011747 -0.765743841219647
! Port Impedance 50.00000000000000 0.00000000000000 50.00000000000000 0.00000000000000
61.0 -0.059108792532109 -0.762908809767125 0.642497131904231 -0.040911286223543 0.642497131904231 -0.040911286223543 -0.03813335957745 -0.764244430529675
! Port Impedance 50.00000000000000 0.00000000000000 50.00000000000000 0.00000000000000
62.0 -0.07055447038483 -0.760990152418376 0.642934542140395 -0.050509685543241 0.642934542140395 -0.050509685543241 -0.049146202520092 -0.762672011780229
! Port Impedance 50.00000000000000 0.00000000000000 50.00000000000000 0.00000000000000
63.0 -0.081813115911232 -0.758992804434819 0.643146640962665 -0.059991118118518 0.643146640962665 -0.059991118118518 -0.059970847845578 -0.761030197812858
! Port Impedance 50.00000000000000 0.00000000000000 50.00000000000000 0.00000000000000
64.0 -0.092890794241144 -0.756919986743076 0.643143476233776 -0.069353457986732 0.643143476233776 -0.069353457986732 -0.070613382468644 -0.759322275243918
! Port Impedance 50.00000000000000 0.00000000000000 50.00000000000000 0.00000000000000
65.0 -0.10379327615662 -0.754774622500523 0.642934721719259 -0.07859496046019 0.642934721719259 -0.07859496046019 -0.081079600654412 -0.757551235745695
! Port Impedance 50.00000000000000 0.00000000000000 50.00000000000000 0.00000000000000
66.0 -0.114526049025413 -0.752559365750127 0.642529686635335 -0.087714229626919 0.642529686635335 -0.087714229626919 -0.09137501484821 -0.755719804550053
! Port Impedance 50.00000000000000 0.00000000000000 50.00000000000000 0.00000000000000
67.00000000000001 -0.125094327969476 -0.750276627494694 0.641937325604949 -0.096710188448234 0.641937325604949 -0.096710188448234 -0.101504866742007 -0.753830466395333
! Port Impedance 50.00000000000000 0.00000000000000 50.00000000000000 0.00000000000000
68.0 -0.135503067140471 -0.747928599399142 0.641166248889266 -0.105582051252266 0.641166248889266 -0.105582051252266 -0.11147413845054 -0.751885489123074
! Port Impedance 50.00000000000000 0.00000000000000 50.00000000000000 0.00000000000000
69.0 -0.145756970995993 -0.745517275315448 0.640224732783275 -0.114329298436058 0.640224732783276 -0.114329298436058 -0.121287563691731 -0.749886945117391
! Port Impedance 50.00000000000000 0.00000000000000 50.00000000000000 0.00000000000000
70.0 -0.155860505488811 -0.743044470811359 0.639120730082624 -0.122951653201872 0.639120730082624 -0.122951653201872 -0.130949638884417 -0.74783673076638
! Port Impedance 50.00000000000000 0.00000000000000 50.00000000000000 0.00000000000000
71.00000000000001 -0.165817909097545 -0.740511840870961 0.637861880544634 -0.131449060165906 0.637861880544634 -0.131449060165906 -0.140464634092424 -0.745736584112025
! Port Impedance 50.00000000000000 0.00000000000000 50.00000000000000 0.00000000000000
72.00000000000001 -0.175633203640978 -0.73792089592272 0.636455521280084 -0.139821665689544 0.636455521280084 -0.139821665689544 -0.149836603757606 -0.743588100842788
! Port Impedance 50.00000000000000 0.00000000000000 50.00000000000000 0.00000000000000
73.00000000000001 -0.185310204829997 -0.735273016338854 0.634908697024022 -0.148069799794613 0.634908697024022 -0.148069799794613 -0.159069397176203 -0.741392748771345
! Port Impedance 50.00000000000000 0.00000000000000 50.00000000000000 0.00000000000000
74.0 -0.194852532521246 -0.732569465538714 0.63322817024383 -0.156193959534758 0.633228170243829 -0.156193959534759 -0.168166668682868 -0.73915188092893
! Port Impedance 50.00000000000000 0.00000000000000 50.00000000000000 0.00000000000000
75.0 -0.204263620645137 -0.729811401818429 0.631420431051275 -0.164194793705101 0.631420431051275 -0.164194793705101 -0.177131887515142 -0.736866747397403
! Port Impedance 50.00000000000000 0.00000000000000 50.00000000000000 0.00000000000000
76.0 -0.213546726788787 -0.726999889019135 0.629491706892369 -0.172073088781829 0.629491706892369 -0.172073088781829 -0.185968347338261 -0.734538505990518
! Port Impedance 50.00000000000000 0.00000000000000 50.00000000000000 0.00000000000000
77.0 -0.222704941414079 -0.724135906138326 0.627447971996136 -0.179829755990287 0.627447971996136 -0.179829755990288 -0.194679175417816 -0.732168231885927
! Port Impedance 50.00000000000000 0.00000000000000 50.00000000000000 0.00000000000000
78.0 -0.231741196721817 -0.721220355975 0.625294956564007 -0.187465819415446 0.625294956564006 -0.187465819415446 -0.203267341426556 -0.729756926304796
! Port Impedance 50.00000000000000 0.00000000000000 50.00000000000000 0.00000000000000
79.0 -0.240658275121108 -0.718254072903218 0.62303815569582 -0.194982405060216 0.623038155695819 -0.194982405060216 -0.211735665889797 -0.727305524319812
! Port Impedance 50.00000000000000 0.00000000000000 50.00000000000000 0.00000000000000
80.0 -0.249458817342801 -0.715237829845341 0.62068283803859 -0.202380730785589 0.62068283803859 -0.202380730785589 -0.220086828258618 -0.724814901876413
! Port Impedance 50.00000000000000 0.00000000000000 50.00000000000000 0.00000000000000
81.0 -0.258145330172748 -0.712172344523403 0.618234054158877 -0.209662097054234 0.618234054158877 -0.209662097054235 -0.228323374619264 -0.722285882095606
! Port Impedance 50.00000000000000 0.00000000000000 50.00000000000000 0.00000000000000
82.0 -0.266720193819151 -0.70905828505323 0.615696644635718 -0.216827878415321 0.615696644635718 -0.216827878415321 -0.236447725040671 -0.71971924092594
! Port Impedance 50.00000000000000 0.00000000000000 50.00000000000000 0.00000000000000
