!Created with skrf (http://scikit-rf.org).
# MHz S RI R 50.0 
!freq ReS11 ImS11 ReS21 ImS21 ReS12 ImS12 ReS22 ImS22
1.0 0.999673701951919 -0.024298072634266 0.000191364679172 0.00787760662119 0.000191364679171 0.007877606621188 0.999674370120964 -0.024270571887077
! Port Impedance 50.00000000000000 0.00000000000000 50.00000000000000 0.00000000000000
2.0 0.998695600135929 -0.048569028651958 0.000764776300151 0.015734562067061 0.00076477630015 0.015734562067061 0.998698266571049 -0.048514023272464
! Port Impedance 50.00000000000000 0.00000000000000 50.00000000000000 0.00000000000000
3.0 0.997068021646873 -0.072786030021875 0.001718193605807 0.023550324048449 0.001718193605807 0.02355032404845 0.997074046033079 -0.072703342865477
! Port Impedance 50.00000000000000 0.00000000000000 50.00000000000000 0.00000000000000
4.0 0.99479485480124 -0.096922369387362 0.00304823160694 0.031304565921304 0.00304823160694 0.031304565921305 0.994805616870064 -0.096811757207965
! Port Impedance 50.00000000000000 0.00000000000000 50.00000000000000 0.00000000000000
5.0 0.991881500757128 -0.120951692546674 0.004750186538427 0.038977282007974 0.004750186538428 0.038977282007974 0.991898414342739 -0.120812839106661
! Port Impedance 50.00000000000000 0.00000000000000 50.00000000000000 0.00000000000000
6.0 0.988334841226698 -0.144848100561353 0.006818070618469 0.046548889565167 0.006818070618469 0.046548889565168 0.988359364166817 -0.144680618354984
! Port Impedance 50.00000000000000 0.00000000000000 50.00000000000000 0.00000000000000
7.0 0.984163193422681 -0.168586253862543 0.009244655912294 0.054000326494806 0.009244655912294 0.054000326494807 0.984196836717136 -0.168389687834785
! Port Impedance 50.00000000000000 0.00000000000000 50.00000000000000 0.00000000000000
8.0 0.979376255825003 -0.192141471979881 0.012021526747112 0.061313143903432 0.012021526747113 0.061313143903433 0.979420592282502 -0.19191530429829
! Port Impedance 50.00000000000000 0.00000000000000 50.00000000000000 0.00000000000000
9.000000000000002 0.973985045681321 -0.215489827376992 0.015139140009201 0.068469592674359 0.015139140009201 0.06846959267436 0.974041718041321 -0.215233483000387
! Port Impedance 50.00000000000000 0.00000000000000 50.00000000000000 0.00000000000000
10.000000000000002 0.968001829046622 -0.238608232499989 0.018586892561589 0.075452703311837 0.01858689256159 0.075452703311838 0.968072557530362 -0.238321085424227
! Port Impedance 50.00000000000000 0.00000000000000 50.00000000000000 0.00000000000000
11.0 0.96144004421291 -0.26147451935118 0.022353194946398 0.082246358423062 0.022353194946398 0.082246358423063 0.961526633455908 -0.261155899446158
! Port Impedance 50.00000000000000 0.00000000000000 50.00000000000000 0.00000000000000
12.0 0.95431421943241 -0.284067511038789 0.026425550478086 0.088835357317765 0.026425550478087 0.088835357317765 0.954418564755825 -0.283716711399869
! Port Impedance 50.00000000000000 0.00000000000000 50.00000000000000 0.00000000000000
13.000000000000002 0.946639885877727 -0.306367084880429 0.03079063879302 0.095205472323662 0.03079063879302 0.095205472323662 0.946763978863293 -0.3059833696191
! Port Impedance 50.00000000000000 0.00000000000000 50.00000000000000 0.00000000000000
14.000000000000002 0.938433486806923 -0.328354226761571 0.035434402896807 0.101343496536642 0.035434402896807 0.101343496536643 0.938579420147977 -0.327936839160152
! Port Impedance 50.00000000000000 0.00000000000000 50.00000000000000 0.00000000000000
15.0 0.929712283909318 -0.350011076571999 0.040342138743507 0.107237282844636 0.040342138743507 0.107237282844636 0.929882255518779 -0.349559247526888
! Port Impedance 50.00000000000000 0.00000000000000 50.00000000000000 0.00000000000000
16.0 0.920494261800239 -0.371320964661322 0.045498586389441 0.112875774181323 0.045498586389441 0.112875774181323 0.920690578164478 -0.370833921339625
! Port Impedance 50.00000000000000 0.00000000000000 50.00000000000000 0.00000000000000
17.0 0.910798031610099 -0.392268439367678 0.050888021787899 0.118249025077973 0.050888021787899 0.118249025077974 0.911023110385733 -0.391745414003006
! Port Impedance 50.00000000000000 0.00000000000000 50.00000000000000 0.00000000000000
18.000000000000004 0.900642734576993 -0.412839285779525 0.056494348328189 0.123348214686809 0.056494348328189 0.123348214686809 0.900899106435253 -0.412279524534555
! Port Impedance 50.00000000000000 0.00000000000000 50.00000000000000 0.00000000000000
19.000000000000004 0.890047946503463 -0.433020535987674 0.062301187271736 0.128165651545746 0.062301187271736 0.128165651545746 0.890338256234141 -0.432423307813693
! Port Impedance 50.00000000000000 0.00000000000000 50.00000000000000 0.00000000000000
20.0 0.879033583879475 -0.452800471172155 0.068291966297484 0.132694770440866 0.068291966297484 0.132694770440866 0.879360590773114 -0.452165076598969
! Port Impedance 50.00000000000000 0.00000000000000 50.00000000000000 0.00000000000000
21.0 0.867619812406219 -0.472168615944726 0.074450005436887 0.13693012179847 0.074450005436887 0.13693012179847 0.867986389939405 -0.471494395738338
! Port Impedance 50.00000000000000 0.00000000000000 50.00000000000000 0.00000000000000
22.000000000000004 0.855826958581531 -0.491115725432818 0.080758599753369 0.140867354102442 0.080758599753369 0.140867354102442 0.856236093435631 -0.490402069062672
! Port Impedance 50.00000000000000 0.00000000000000 50.00000000000000 0.00000000000000
23.0 0.843675424929102 -0.509633765643563 0.087201098200372 0.144503189884604 0.087201098200373 0.144503189884604 0.844130215377554 -0.508880119506034
! Port Impedance 50.00000000000000 0.00000000000000 50.00000000000000 0.00000000000000
24.0 0.831185609372043 -0.527715887687612 0.093760978174162 0.147835395875602 0.093760978174163 0.147835395875603 0.831689263075455 -0.526921763037598
! Port Impedance 50.00000000000000 0.00000000000000 50.00000000000000 0.00000000000000
25.0 0.818377829174714 -0.545356396462774 0.100421915359962 0.150862747932842 0.100421915359962 0.150862747932843 0.818933660420428 -0.544521377019589
! Port Impedance 50.00000000000000 0.00000000000000 50.00000000000000 0.00000000000000
26.000000000000004 0.805272249750239 -0.562550714482829 0.107167848557494 0.153584991373005 0.107167848557494 0.153584991373005 0.80588367621464 -0.561674463623512
! Port Impedance 50.00000000000000 0.00000000000000 50.00000000000000 0.00000000000000
27.000000000000004 0.791888818700727 -0.579295341316652 0.113983039235678 0.156002797362701 0.113983039235678 0.156002797362701 0.792559357701549 -0.578377608945393
! Port Impedance 50.00000000000000 0.00000000000000 50.00000000000000 0.00000000000000
28.0 0.778247205088529 -0.595587809543978 0.120852125676146 0.158117715978976 0.120852125676145 0.158117715978976 0.778980469478594 -0.594628438456605
! Port Impedance 50.00000000000000 0.00000000000000 50.00000000000000 0.00000000000000
29.0 0.764366744220002 -0.611426637581916 0.127760171598188 0.159932126586003 0.127760171598188 0.159932126586003 0.765166437896309 -0.610425569417972
! Port Impedance 50.00000000000000 0.00000000000000 50.00000000000000 0.00000000000000
30.000000000000004 0.750266387877686 -0.626811280140304 0.134692709256538 0.161449186117834 0.134692709256538 0.161449186117835 0.751136300983606 -0.625768560864209
! Port Impedance 50.00000000000000 0.00000000000000 50.00000000000000 0.00000000000000
31.0 0.73596466001015 -0.641742076832949 0.141635777050027 0.162672775848366 0.141635777050026 0.162672775848366 0.736908663874578 -0.640657861741029
! Port Impedance 50.00000000000000 0.00000000000000 50.00000000000000 0.00000000000000
32.0 0.72147961779582 -0.656220199497763 0.148575951738783 0.163607447192834 0.148575951738783 0.163607447192834 0.722501659656572 -0.655094757745994
! Port Impedance 50.00000000000000 0.00000000000000 50.00000000000000 0.00000000000000
33.0 0.706828817952324 -0.670247598737017 0.155500375416008 0.164258367049409 0.155500375416008 0.164258367049409 0.707932915509678 -0.669081317388658
! Port Impedance 50.00000000000000 0.00000000000000 50.00000000000000 0.00000000000000
34.0 0.692029288120426 -0.683826950150374 0.162396777422489 0.164631263149901 0.162396777422489 0.164631263149901 0.693219523964865 -0.68262033774679
! Port Impedance 50.00000000000000 0.00000000000000 50.00000000000000 0.00000000000000
35.0 0.677097503115644 -0.696961600692613 0.169253491427513 0.164732369846739 0.169253491427513 0.164732369846739 0.678378019071784 -0.695715290354228
! Port Impedance 50.00000000000000 0.00000000000000 50.00000000000000 0.00000000000000
36.00000000000001 0.66204936581125 -0.709655515545766 0.176059467928747 0.164568374720203 0.176059467928747 0.164568374720204 0.663424357237554 -0.708370267613429
! Port Impedance 50.00000000000000 0.00000000000000 50.00000000000000 0.00000000000000
37.00000000000001 0.646900192392927 -0.721913225852709 0.182804282446293 0.164146366346264 0.182804282446293 0.164146366346264 0.648373902474932 -0.720589930082061
! Port Impedance 50.00000000000000 0.00000000000000 50.00000000000000 0.00000000000000
38.0 0.631664701707984 -0.733739777616375 0.189478139704439 0.163473783521776 0.189478139704439 0.163473783521776 0.633241415773591 -0.732379454946087
! Port Impedance 50.00000000000000 0.00000000000000 50.00000000000000 0.00000000000000
39.0 0.616357008419653 -0.745140682028675 0.196071874099741 0.162558366202047 0.196071874099741 0.162558366202047 0.61804104832554 -0.743744485924847
! Port Impedance 50.00000000000000 0.00000000000000 50.00000000000000 0.00000000000000
40.0 0.600990619670308 -0.756121867449216 0.202576946774963 0.161408108363012 0.202576946774962 0.161408108363012 0.602786338260648 -0.754691084870091
! Port Impedance 50.00000000000000 0.00000000000000 50.00000000000000 0.00000000000000
41.0 0.585578434954019 -0.766689633220712 0.208985439599859 0.160031212963659 0.208985439599859 0.160031212963659 0.587490210641898 -0.765225685200992
! Port Impedance 50.00000000000000 0.00000000000000 50.00000000000000 0.00000000000000
42.0 0.570132748900645 -0.776850605466954 0.215290046376415 0.158436049144952 0.215290046376415 0.158436049144952 0.572164980382647 -0.775355047355019
! Port Impedance 50.00000000000000 0.00000000000000 50.00000000000000 0.00000000000000
43.0 0.554665256677857 -0.786611694988102 0.221484061569878 0.156631111768879 0.221484061569878 0.156631111768879 0.556822357805546 -0.785086216356094
! Port Impedance 50.00000000000000 0.00000000000000 50.00000000000000 0.00000000000000
44.00000000000001 0.539187061725142 -0.795980057335904 0.227561366862408 0.154624983368696 0.227561366862408 0.154624983368696 0.541473456550403 -0.794426481586701
! Port Impedance 50.00000000000000 0.00000000000000 50.00000000000000 0.00000000000000
45.0 0.523708685543674 -0.804963055123216 0.233516415814629 0.152426298552957 0.233516415814629 0.152426298552957 0.526128803552966 -0.80338333881801
! Port Impedance 50.00000000000000 0.00000000000000 50.00000000000000 0.00000000000000
46.0 0.508240079277853 -0.813568222596439 0.239344216907655 0.15004371087981 0.239344216907655 0.15004371087981 0.51079835082782 -0.811964454526755
! Port Impedance 50.00000000000000 0.00000000000000 50.00000000000000 0.00000000000000
47.0 0.492790636837685 -0.821803232476672 0.245040315223858 0.147485862194941 0.245040315223858 0.147485862194941 0.495491488802279 -0.820177632504493
! Port Impedance 50.00000000000000 0.00000000000000 50.00000000000000 0.00000000000000
48.0 0.477369209325762 -0.829675865055172 0.250600773009203 0.144761354406213 0.250600773009203 0.144761354406213 0.480217060962808 -0.828030782744468
! Port Impedance 50.00000000000000 0.00000000000000 50.00000000000000 0.00000000000000
49.0 0.461984120547928 -0.837193979511237 0.256022149343745 0.141878723650406 0.256022149343745 0.141878723650406 0.464983379591049 -0.835531892573694
! Port Impedance 50.00000000000000 0.00000000000000 50.00000000000000 0.00000000000000
50.0 0.446643183402575 -0.844365487405586 0.261301479130175 0.13884641679242 0.261301479130175 0.13884641679242 0.449798242382475 -0.842688999982699
! Port Impedance 50.00000000000000 0.00000000000000 50.00000000000000 0.00000000000000
51.0 0.431353716959513 -0.851198328289734 0.266436251593443 0.135672770184688 0.266436251593443 0.135672770184688 0.434668949756927 -0.849510169092637
! Port Impedance 50.00000000000000 0.00000000000000 50.00000000000000 0.00000000000000
52.00000000000001 0.416122564055415 -0.857700447361396 0.271424388467648 0.132365990604196 0.271424388467648 0.132365990604196 0.419602322686408 -0.856003467689013
! Port Impedance 50.00000000000000 0.00000000000000 50.00000000000000 0.00000000000000
53.00000000000001 0.400956109248515 -0.863879775087628 0.276264222029829 0.128934138276248 0.276264222029829 0.128934138276248 0.404604720881458 -0.862176946742772
! Port Impedance 50.00000000000000 0.00000000000000 50.00000000000000 0.00000000000000
54.0 0.385860296990712 -0.869744208710884 0.280954473124179 0.125385111887798 0.280954473124179 0.125385111887797 0.389682061192945 -0.868038621832968
! Port Impedance 50.00000000000000 0.00000000000000 50.00000000000000 0.00000000000000
55.0 0.370840649889934 -0.875301595548362 0.285494229304445 0.121726635489054 0.285494229304445 0.121726635489054 0.37483983610422 -0.873596456379026
! Port Impedance 50.00000000000000 0.00000000000000 50.00000000000000 0.00000000000000
56.0 0.355902286949946 -0.880559717991762 0.28988292320903 0.11796624717453 0.28988292320903 0.11796624717453 0.360083132175966 -0.878858346598875
! Port Impedance 50.00000000000000 0.00000000000000 50.00000000000000 0.00000000000000
57.0 0.341049941687902 -0.885526280112331 0.294120311263339 0.114111289449431 0.294120311263339 0.114111289449431 0.345416648417739 -0.883832108064921
! Port Impedance 50.00000000000000 0.00000000000000 50.00000000000000 0.00000000000000
58.0 0.326287980043203 -0.890208895775866 0.298206452802739 0.110168901152888 0.298206452802739 0.110168901152888 0.330844714370563 -0.888525463816399
! Port Impedance 50.00000000000000 0.00000000000000 50.00000000000000 0.00000000000000
59.00000000000001 0.311620418002285 -0.894615078171801 0.302141689681514 0.10614601085371 0.302141689681514 0.10614601085371 0.316371307957104 -0.892946033874543
! Port Impedance 50.00000000000000 0.00000000000000 50.00000000000000 0.00000000000000
60.00000000000001 0.297050938875588 -0.898752230662191 0.305926626434492 0.102049331599903 0.305926626434492 0.102049331599903 0.302000072952969 -0.897101326100507
! Port Impedance 50.00000000000000 0.00000000000000 50.00000000000000 0.00000000000000
61.0 0.282582910172725 -0.902627638857926 0.309562111040755 0.097885356923903 0.309562111040755 0.097885356923903 0.287734336053278 -0.900998728290174
! Port Impedance 50.00000000000000 0.00000000000000 50.00000000000000 0.00000000000000
62.0 0.26821940003132 -0.90624846383198 0.313049216331057 0.093660358002828 0.313049216331057 0.093660358002828 0.273577123485268 -0.904645501416565
! Port Impedance 50.00000000000000 0.00000000000000 50.00000000000000 0.00000000000000
63.0 0.253963193163365 -0.909621736382436 0.316389222071424 0.089380381877076 0.316389222071424 0.089380381877076 0.259531177130588 -0.90804877393164
! Port Impedance 50.00000000000000 0.00000000000000 50.00000000000000 0.00000000000000
64.0 0.239816806290644 -0.912754352261298 0.319583597747361 0.085051250634375 0.319583597747361 0.085051250634374 0.245598970128655 -0.911215537042608
! Port Impedance 50.00000000000000 0.00000000000000 50.00000000000000 0.00000000000000
65.0 0.22578250304767 -0.915653068288687 0.32263398606583 0.080678561470399 0.32263398606583 0.080678561470399 0.231782721939448 -0.914152640881491
! Port Impedance 50.00000000000000 0.00000000000000 50.00000000000000 0.00000000000000
66.0 0.211862308336628 -0.918324499275894 0.325542187185581 0.076267687541609 0.325542187185581 0.076267687541609 0.218084412851935 -0.91686679149018
! Port Impedance 50.00000000000000 0.00000000000000 50.00000000000000 0.00000000000000
67.00000000000001 0.198058022125159 -0.920775115684252 0.328310143681847 0.071823779527897 0.328310143681848 0.071823779527897 0.204505797914329 -0.919364548550654
! Port Impedance 50.00000000000000 0.00000000000000 50.00000000000000 0.00000000000000
68.0 0.18437123267934 -0.923011241952498 0.330939926241715 0.067351767836597 0.330939926241715 0.067351767836596 0.191048420327168 -0.921652323780843
! Port Impedance 50.00000000000000 0.00000000000000 50.00000000000000 0.00000000000000
69.0 0.170803329235631 -0.925039055425758 0.33343372009206 0.062856365363563 0.33343372009206 0.062856365363562 0.177713624215391 -0.923736379949275
! Port Impedance 50.00000000000000 0.00000000000000 50.00000000000000 0.00000000000000
70.0 0.157355514110013 -0.926864585828056 0.335793812144751 0.058342070758788 0.335793812144751 0.058342070758788 0.164502566871657 -0.925622830427578
! Port Impedance 50.00000000000000 0.00000000000000 50.00000000000000 0.00000000000000
71.00000000000001 0.144028814227918 -0.928493715225493 0.338022578849156 0.053813172119943 0.338022578849156 0.053813172119943 0.151416230419504 -0.927317639237796
! Port Impedance 50.00000000000000 0.00000000000000 50.00000000000000 0.00000000000000
72.00000000000001 0.130824092238046 -0.929932178395684 0.340122474752655 0.049273751091029 0.340122474752655 0.049273751091029 0.138455432923865 -0.928826621529049
! Port Impedance 50.00000000000000 0.00000000000000 50.00000000000000 0.00000000000000
73.00000000000001 0.117742056791672 -0.931185563643958 0.342096021706053 0.044727687224241 0.342096021706053 0.044727687224241 0.125620838963421 -0.930155444455934
! Port Impedance 50.00000000000000 0.00000000000000 50.00000000000000 0.00000000000000
74.0 0.104783272669041 -0.932259313881809 0.343945798767585 0.04017866269194 0.343945798767586 0.040178662691939 0.112912969667001 -0.9313096283804
! Port Impedance 50.00000000000000 0.00000000000000 50.00000000000000 0.00000000000000
75.0 0.091948170139782 -0.933158728056607 0.345674432717189 0.035630167175015 0.345674432717189 0.035630167175015 0.100332212238701 -0.932294548385587
! Port Impedance 50.00000000000000 0.00000000000000 50.00000000000000 0.00000000000000
76.0 0.079237053924151 -0.93388896282109 0.34728458919754 0.031085502957413 0.34728458919754 0.031085502957413 0.087878828981744 -0.933115436045799
! Port Impedance 50.00000000000000 0.00000000000000 50.00000000000000 0.00000000000000
77.0 0.066650111664171 -0.93445503442982 0.348778964447732 0.026547790166564 0.348778964447732 0.026547790166564 0.075552965839511 -0.933777381422361
! Port Impedance 50.00000000000000 0.00000000000000 50.00000000000000 0.00000000000000
78.0 0.054187421934951 -0.934861820827766 0.350160277607866 0.022019972127438 0.350160277607866 0.022019972127437 0.063354660470865 -0.93428533525229
! Port Impedance 50.00000000000000 0.00000000000000 50.00000000000000 0.00000000000000
79.0 0.041848961813902 -0.935114063901719 0.35143126357097 0.01750482079851 0.35143126357097 0.01750482079851 0.051283849877633 -0.934644111300213
! Port Impedance 50.00000000000000 0.00000000000000 50.00000000000000 0.00000000000000
80.0 0.029634614025788 -0.935216371867869 0.352594666358469 0.013004942260912 0.352594666358469 0.013004942260912 0.039340377602344 -0.934858388846662
! Port Impedance 50.00000000000000 0.00000000000000 50.00000000000000 0.00000000000000
81.0 0.017544173681572 -0.935173221771481 0.353653232995336 0.008522782234855 0.353653232995336 0.008522782234855 0.027524000514489 -0.934932715288422
! Port Impedance 50.00000000000000 0.00000000000000 50.00000000000000 0.00000000000000
82.0 0.005577354629029 -0.934988962076863 0.354609707861189 0.004060631600084 0.354609707861189 0.004060631600084 0.01583439520351 -0.934871508828951
! Port Impedance 50.00000000000000 0.00000000000000 50.00000000000000 0.00000000000000
83.0 -0.006266204567038 -0.934667815328022 0.355466827493853 -0.000379368100417 0.355466827493853 -0.000379368100417 0.004271163996608 -0.9346790612391
