!Created with skrf (http://scikit-rf.org).
# MHz S RI R 50.0 
!freq ReS11 ImS11 ReS21 ImS21 ReS12 ImS12 ReS22 ImS22
1.0 0.994053659886285 -0.084492251739528 0.00582954455417 0.068442641540138 0.005829544554165 0.068442641540155 0.994023991994747 -0.084840582306278
! Port Impedance 50.00000000000000 0.00000000000000 50.00000000000000 0.00000000000000
2.0 0.976604781442008 -0.166387014782052 0.022926956008207 0.134286320473139 0.022926956008213 0.134286320473171 0.976488471745933 -0.167068258546877
! Port Impedance 50.00000000000000 0.00000000000000 50.00000000000000 0.00000000000000
3.0 0.948760825922414 -0.243365899543797 0.050181714960245 0.195212012854217 0.050181714960267 0.195212012854257 0.94850761389755 -0.244350918278778
! Port Impedance 50.00000000000000 0.00000000000000 50.00000000000000 0.00000000000000
4.0 0.912175992389601 -0.313607951752041 0.085935106720928 0.249399620871166 0.085935106720967 0.249399620871207 0.911745641899686 -0.314856904107958
! Port Impedance 50.00000000000000 0.00000000000000 50.00000000000000 0.00000000000000
5.0 0.868819682984066 -0.375908109944429 0.128212456546799 0.295646784089009 0.128212456546853 0.295646784089045 0.868183887812676 -0.37737419191024
! Port Impedance 50.00000000000000 0.00000000000000 50.00000000000000 0.00000000000000
6.0 0.820739717225414 -0.429688849841051 0.174960631807528 0.333380550369291 0.174960631807595 0.333380550369316 0.8198825689743 -0.431322104122716
! Port Impedance 50.00000000000000 0.00000000000000 50.00000000000000 0.00000000000000
7.0 0.769865460610525 -0.474926013802028 0.224245508610484 0.362582972930451 0.224245508610558 0.362582972930463 0.768782721125088 -0.476676688695209
! Port Impedance 50.00000000000000 0.00000000000000 50.00000000000000 0.00000000000000
8.0 0.717874753192061 -0.512024202936407 0.274385444642191 0.38366611710985 0.274385444642267 0.383666117109847 0.716572318995295 -0.513845354226792
! Port Impedance 50.00000000000000 0.00000000000000 50.00000000000000 0.00000000000000
9.000000000000002 0.666127260786989 -0.541677085203622 0.324018127648144 0.397331937505556 0.32401812764822 0.397331937505538 0.664619222898655 -0.543526329501724
! Port Impedance 50.00000000000000 0.00000000000000 50.00000000000000 0.00000000000000
10.000000000000002 0.615652528407522 -0.564738766451115 0.372112555502772 0.40444325173712 0.37211255550284 0.404443251737089 0.613959159744975 -0.566579253156851
! Port Impedance 50.00000000000000 0.00000000000000 50.00000000000000 0.00000000000000
11.0 0.567175138698952 -0.582120460981195 0.41794379844701 0.405920090598723 0.417943798447068 0.405920090598683 0.565321034390539 -0.5839212165256
! Port Impedance 50.00000000000000 0.00000000000000 50.00000000000000 0.00000000000000
12.0 0.521159922137269 -0.594716604272721 0.46104764845372 0.402665579806515 0.461047648453768 0.40266557980647 0.519172414519444 -0.596452427437834
! Port Impedance 50.00000000000000 0.00000000000000 50.00000000000000 0.00000000000000
13.000000000000002 0.477864018863795 -0.603358059117572 0.501168395875569 0.395518997494552 0.501168395875605 0.395518997494504 0.475771908773733 -0.605009131969571
! Port Impedance 50.00000000000000 0.00000000000000 50.00000000000000 0.00000000000000
14.000000000000002 0.437387226955186 -0.608787005377638 0.538208324556995 0.38523058127851 0.538208324557022 0.385230581278463 0.435219820918849 -0.610338351494865
! Port Impedance 50.00000000000000 0.00000000000000 50.00000000000000 0.00000000000000
15.0 0.399716061636124 -0.611647451236755 0.572183514787731 0.37245200439662 0.572183514787747 0.372452004396574 0.397502476768205 -0.613088336100721
! Port Impedance 50.00000000000000 0.00000000000000 50.00000000000000 0.00000000000000
16.0 0.364759792863814 -0.612485971696548 0.603187691934893 0.357737110335939 0.603187691934902 0.357737110335898 0.362528480776323 -0.61380930735715
! Port Impedance 50.00000000000000 0.00000000000000 50.00000000000000 0.00000000000000
17.0 0.332378466415947 -0.611758459033152 0.631364115620586 0.341548677893947 0.63136411562059 0.34154867789391 0.330156907464397 -0.612960249562773
! Port Impedance 50.00000000000000 0.00000000000000 50.00000000000000 0.00000000000000
18.000000000000004 0.302403807558685 -0.609839882861049 0.656884607657511 0.324268205231086 0.65688460765751 0.324268205231056 0.300218332214977 -0.610918728881436
! Port Impedance 50.00000000000000 0.00000000000000 50.00000000000000 0.00000000000000
19.000000000000004 0.274654246202904 -0.607035083714527 0.679934476093819 0.306206730844746 0.679934476093815 0.306206730844722 0.272529947867257 -0.607991752281799
! Port Impedance 50.00000000000000 0.00000000000000 50.00000000000000 0.00000000000000
20.0 0.248945323313607 -0.603589400621781 0.700702071799157 0.287615488313052 0.700702071799151 0.287615488313032 0.246906034527363 -0.604426459471969
! Port Impedance 50.00000000000000 0.00000000000000 50.00000000000000 0.00000000000000
21.0 0.225096602375487 -0.599698476216912 0.719371850398578 0.268695736372431 0.719371850398573 0.268695736372417 0.223164913220176 -0.600419987389073
! Port Impedance 50.00000000000000 0.00000000000000 50.00000000000000 0.00000000000000
22.000000000000004 0.202936016128634 -0.595516938678526 0.736120006537297 0.249607462713818 0.736120006537292 0.249607462713808 0.201133319244504 -0.596128204707161
! Port Impedance 50.00000000000000 0.00000000000000 50.00000000000000 0.00000000000000
23.0 0.182302381644296 -0.591165878379317 0.75111194520148 0.230476879139565 0.751111945201475 0.230476879139559 0.180648932752073 -0.591673233749713
! Port Impedance 50.00000000000000 0.00000000000000 50.00000000000000 0.00000000000000
24.0 0.16304664147189 -0.586739161669459 0.764501030690711 0.211402750638002 0.764501030690708 0.211402750637999 0.161561627667422 -0.587149802487514
! Port Impedance 50.00000000000000 0.00000000000000 50.00000000000000 0.00000000000000
25.0 0.145032243857596 -0.582308687638184 0.776428199007658 0.192461664545218 0.776428199007656 0.192461664545217 0.143733854455977 -0.582630533109279
! Port Impedance 50.00000000000000 0.00000000000000 50.00000000000000 0.00000000000000
26.000000000000004 0.128134961111364 -0.577928719406729 0.787022133699337 0.173712371749219 0.787022133699337 0.17371237174922 0.127040457632401 -0.57817029951712
! Port Impedance 50.00000000000000 0.00000000000000 50.00000000000000 0.00000000000000
27.000000000000004 0.112242358438126 -0.573639425265213 0.796399792208486 0.155199335661238 0.796399792208488 0.15519933566124 0.111368141613438 -0.573809789881149
! Port Impedance 50.00000000000000 0.00000000000000 50.00000000000000 0.00000000000000
28.0 0.09725306107321 -0.569469756931551 0.804667134464612 0.136955616619061 0.804667134464615 0.136955616619063 0.096614733652205 -0.569578402304205
! Port Impedance 50.00000000000000 0.00000000000000 50.00000000000000 0.00000000000000
29.0 0.083075920563539 -0.56543977865432 0.811919952585096 0.119005205788766 0.8119199525851 0.119005205788769 0.082688345307105 -0.565496588009098
! Port Impedance 50.00000000000000 0.00000000000000 50.00000000000000 0.00000000000000
30.000000000000004 0.06962914732794 -0.561562545500042 0.8182447343668 0.101364907202247 0.818244734366805 0.10136490720225 0.069506499985642 -0.561577740985927
! Port Impedance 50.00000000000000 0.00000000000000 50.00000000000000 0.00000000000000
31.0 0.05683945280484 -0.557845614009664 0.823719517145674 0.084045851365141 0.82371951714568 0.084045851365144 0.056995270133702 -0.557829717789257
! Port Impedance 50.00000000000000 0.00000000000000 50.00000000000000 0.00000000000000
32.0 0.044641227894763 -0.554292254513195 0.828414705252564 0.067054709930866 0.82841470525257 0.067054709930869 0.045088450939217 -0.554256057194694
! Port Impedance 50.00000000000000 0.00000000000000 50.00000000000000 0.00000000000000
33.0 0.032975773013149 -0.550902422186237 0.83239383571946 0.050394668693387 0.832393835719466 0.050394668693389 0.033726785958102 -0.550856957145092
! Port Impedance 50.00000000000000 0.00000000000000 50.00000000000000 0.00000000000000
34.0 0.021790587388357 -0.547673533506067 0.835714284593816 0.034066205692639 0.835714284593822 0.034066205692641 0.022857252343057 -0.54763005592713
! Port Impedance 50.00000000000000 0.00000000000000 50.00000000000000 0.00000000000000
35.0 0.01103872017513 -0.544601086025723 0.838427911297978 0.018067712460108 0.838427911297984 0.01806771246011 0.012432408260515 -0.544571055726768
! Port Impedance 50.00000000000000 0.00000000000000 50.00000000000000 0.00000000000000
36.00000000000001 0.000678182713451 -0.541679152156365 0.840581641720323 0.00239598918114 0.840581641720329 0.002395989181141 0.002409801820999 -0.541674219439947
! Port Impedance 50.00000000000000 0.00000000000000 50.00000000000000 0.00000000000000
37.00000000000001 -0.009328580720002 -0.538900771726142 0.84221799271279 -0.012953361390198 0.842217992712796 -0.012953361390198 -0.007248561146556 -0.538932765656888
! Port Impedance 50.00000000000000 0.00000000000000 50.00000000000000 0.00000000000000
38.0 -0.019015167447679 -0.536258263264886 0.843375541799321 -0.027985621261973 0.843375541799327 -0.027985621261973 -0.016576694279894 -0.536339181890161
! Port Impedance 50.00000000000000 0.00000000000000 50.00000000000000 0.00000000000000
39.0 -0.028411640548536 -0.533743470061989 0.844089346455141 -0.04270670969376 0.844089346455146 -0.042706709693759 -0.025605057189079 -0.533885472190973
! Port Impedance 50.00000000000000 0.00000000000000 50.00000000000000 0.00000000000000
40.0 -0.037544907150613 -0.531347953895935 0.844391317495897 -0.057122987916236 0.844391317495902 -0.057122987916237 -0.034360935824187 -0.531563352130143
! Port Impedance 50.00000000000000 0.00000000000000 50.00000000000000 0.00000000000000
41.0 -0.046439055313249 -0.529063146799086 0.844310551055655 -0.071241105695754 0.84431055105566 -0.071241105695754 -0.042868781187055 -0.529364401569926
! Port Impedance 50.00000000000000 0.00000000000000 50.00000000000000 0.00000000000000
42.0 -0.055115653749584 -0.526880469183834 0.843873623427495 -0.085067881402821 0.8438736234275 -0.085067881402822 -0.051150510663925 -0.527280183602955
! Port Impedance 50.00000000000000 0.00000000000000 50.00000000000000 0.00000000000000
43.0 -0.06359401835468 -0.524791421019941 0.843104852753539 -0.098610208884975 0.843104852753542 -0.098610208884976 -0.05922577596887 -0.525302336388358
! Port Impedance 50.00000000000000 0.00000000000000 50.00000000000000 0.00000000000000
44.00000000000001 -0.071891449180241 -0.522787651439565 0.842026531225081 -0.11187498576221 0.842026531225084 -0.111874985762211 -0.067112201361417 -0.523422643293768
! Port Impedance 50.00000000000000 0.00000000000000 50.00000000000000 0.00000000000000
45.0 -0.080023441160767 -0.520861011092305 0.840659131115601 -0.124869058820705 0.840659131115603 -0.124869058820706 -0.074825595463648 -0.521633085691396
! Port Impedance 50.00000000000000 0.00000000000000 50.00000000000000 0.00000000000000
46.0 -0.088003871565662 -0.519003590726378 0.839021487637289 -0.137599183029665 0.839021487637291 -0.137599183029665 -0.082380139669697 -0.519925881904935
! Port Impedance 50.00000000000000 0.00000000000000 50.00000000000000 0.00000000000000
47.0 -0.095845166837613 -0.517207748792397 0.837130961295791 -0.150071991387865 0.837130961295793 -0.150071991387866 -0.089788555824364 -0.518293515120295
! Port Impedance 50.00000000000000 0.00000000000000 50.00000000000000 0.00000000000000
48.0 -0.103558451185334 -0.515466130320101 0.835003582124021 -0.162293973354438 0.835003582124023 -0.162293973354439 -0.097062255553641 -0.516728752523768
! Port Impedance 50.00000000000000 0.00000000000000 50.00000000000000 0.00000000000000
49.0 -0.111153679031275 -0.513771678879293 0.832654177906794 -0.174271460058874 0.832654177906794 -0.174271460058874 -0.104211473360685 -0.51522465748938
! Port Impedance 50.00000000000000 0.00000000000000 50.00000000000000 0.00000000000000
50.0 -0.11863975317274 -0.512117643082867 0.830096488264428 -0.186010614839703 0.830096488264428 -0.186010614839704 -0.11124538535722 -0.513774596281755
! Port Impedance 50.00000000000000 0.00000000000000 50.00000000000000 0.00000000000000
51.0 -0.126024630297581 -0.510497578805299 0.827343266244794 -0.197517427946622 0.827343266244794 -0.197517427946622 -0.118172215281653 -0.512372240454506
! Port Impedance 50.00000000000000 0.00000000000000 50.00000000000000 0.00000000000000
52.00000000000001 -0.133315415301861 -0.508905348060672 0.824406368878207 -0.208797714470757 0.824406368878207 -0.208797714470756 -0.124999329260258 -0.511011565893518
! Port Impedance 50.00000000000000 0.00000000000000 50.00000000000000 0.00000000000000
53.00000000000001 -0.14051844568492 -0.507335115299412 0.821296837976416 -0.219857114753113 0.821296837976416 -0.219857114753113 -0.131733320594727 -0.509686849268477
! Port Impedance 50.00000000000000 0.00000000000000 50.00000000000000 0.00000000000000
54.0 -0.147639367145175 -0.505781341733702 0.818024972303786 -0.23070109667071 0.818024972303785 -0.23070109667071 -0.138380085706419 -0.508392662505819
! Port Impedance 50.00000000000000 0.00000000000000 50.00000000000000 0.00000000000000
55.0 -0.154683201365481 -0.504238778181104 0.814600392113722 -0.241334959320463 0.814600392113721 -0.241334959320462 -0.144944892232965 -0.507123865774989
! Port Impedance 50.00000000000000 0.00000000000000 50.00000000000000 0.00000000000000
56.0 -0.161654406869883 -0.502702456817203 0.811032096922169 -0.251763837721536 0.811032096922168 -0.251763837721536 -0.151432440148703 -0.505875599385582
! Port Impedance 50.00000000000000 0.00000000000000 50.00000000000000 0.00000000000000
57.0 -0.168556933668245 -0.501167682157433 0.807328517298176 -0.261992708217005 0.807328517298175 -0.261992708217003 -0.157846916706223 -0.504643274893583
! Port Impedance 50.00000000000000 0.00000000000000 50.00000000000000 0.00000000000000
58.0 -0.175394272486913 -0.499630021502168 0.803497561323939 -0.272026394371085 0.803497561323938 -0.272026394371084 -0.164192045820423 -0.503422565707654
! Port Impedance 50.00000000000000 0.00000000000000 50.00000000000000 0.00000000000000
59.00000000000001 -0.182169499014968 -0.498085295065448 0.799546656355837 -0.281869573122572 0.799546656355836 -0.281869573122571 -0.170471132576882 -0.502209397340007
! Port Impedance 50.00000000000000 0.00000000000000 50.00000000000000 0.00000000000000
60.00000000000001 -0.188885313831627 -0.496529565926209 0.79548278658391 -0.29152678108852 0.795482786583909 -0.291526781088519 -0.176687103326675 -0.500999937505036
! Port Impedance 50.00000000000000 0.00000000000000 50.00000000000000 0.00000000000000
61.0 -0.195544078411936 -0.494959129934395 0.791312526867978 -0.301002420883269 0.791312526867976 -0.301002420883268 -0.182842541868783 -0.499790586167197
! Port Impedance 50.00000000000000 0.00000000000000 50.00000000000000 0.00000000000000
62.0 -0.202147847639471 -0.493370505666009 0.787042073256428 -0.310300767370426 0.787042073256427 -0.310300767370425 -0.18893972212537 -0.498577965640495
! Port Impedance 50.00000000000000 0.00000000000000 50.00000000000000 0.00000000000000
63.0 -0.208698399188591 -0.491760424501815 0.782677270549817 -0.319425973781292 0.782677270549816 -0.319425973781291 -0.194980637676822 -0.497358910813678
! Port Impedance 50.00000000000000 0.00000000000000 50.00000000000000 0.00000000000000
64.0 -0.215197260098678 -0.490125820886591 0.778223637229111 -0.32838207765092 0.77822363722911 -0.328382077650919 -0.200967028480959 -0.496130459558042
! Port Impedance 50.00000000000000 0.00000000000000 50.00000000000000 0.00000000000000
65.0 -0.22164573082639 -0.488463822811637 0.773686388031539 -0.337173006536838 0.773686388031538 -0.337173006536837 -0.206900405064138 -0.494889843360521
! Port Impedance 50.00000000000000 0.00000000000000 50.00000000000000 0.00000000000000
66.0 -0.228044907029916 -0.486771742551901 0.769070454424554 -0.345802583496461 0.769070454424553 -0.345802583496461 -0.212782070439667 -0.493634478213304
! Port Impedance 50.00000000000000 0.00000000000000 50.00000000000000 0.00000000000000
67.00000000000001 -0.234395699311045 -0.485047067679939 0.764380503199884 -0.354274532307959 0.764380503199882 -0.354274532307958 -0.218613139980619 -0.492361955782088
! Port Impedance 50.00000000000000 0.00000000000000 50.00000000000000 0.00000000000000
68.0 -0.240698851116009 -0.483287452371691 0.75962095338453 -0.362592482426219 0.759620953384529 -0.362592482426219 -0.224394559449134 -0.491070034867745
! Port Impedance 50.00000000000000 0.00000000000000 50.00000000000000 0.00000000000000
69.0 -0.246954954974061 -0.481490709013131 0.754795991645113 -0.370759973667823 0.754795991645112 -0.370759973667822 -0.230127121358182 -0.489756633172172
! Port Impedance 50.00000000000000 0.00000000000000 50.00000000000000 0.00000000000000
70.0 -0.25316446723477 -0.479654800113329 0.749909586328959 -0.37878046064829 0.749909586328958 -0.378780460648289 -0.235811479855606 -0.488419819360531
! Port Impedance 50.00000000000000 0.00000000000000 50.00000000000000 0.00000000000000
71.00000000000001 -0.259327721443284 -0.477777830522211 0.744965500315623 -0.386657316909238 0.744965500315622 -0.386657316909237 -0.241448164185835 -0.487057805457634
! Port Impedance 50.00000000000000 0.00000000000000 50.00000000000000 0.00000000000000
72.00000000000001 -0.265444940486922 -0.47585803995636 0.739967302741428 -0.394393838854419 0.739967302741427 -0.394393838854419 -0.247037591006438 -0.485668939514432
! Port Impedance 50.00000000000000 0.00000000000000 50.00000000000000 0.00000000000000
73.00000000000001 -0.271516247623304 -0.473893795821677 0.734918379768274 -0.401993249389335 0.734918379768274 -0.401993249389335 -0.252580075520465 -0.484251698603884
! Port Impedance 50.00000000000000 0.00000000000000 50.00000000000000 0.00000000000000
74.0 -0.277541676491587 -0.47188358633704 0.729821944453372 -0.409458701345369 0.729821944453372 -0.409458701345368 -0.258075841631328 -0.482804682100028
! Port Impedance 50.00000000000000 0.00000000000000 50.00000000000000 0.00000000000000
75.0 -0.283521180204641 -0.46982601394113 0.724681045825479 -0.416793280671612 0.724681045825479 -0.416793280671612 -0.263525031162167 -0.481326605250171
! Port Impedance 50.00000000000000 0.00000000000000 50.00000000000000 0.00000000000000
76.0 -0.289454639599004 -0.467719788983981 0.719498577237617 -0.424000009412964 0.719498577237617 -0.424000009412964 -0.268927712245593 -0.479816293026806
! Port Impedance 50.00000000000000 0.00000000000000 50.00000000000000 0.00000000000000
77.0 -0.295341870720505 -0.465563723690242 0.714277284068579 -0.431081848483728 0.714277284068579 -0.431081848483728 -0.274283886949051 -0.47827267425284
! Port Impedance 50.00000000000000 0.00000000000000 50.00000000000000 0.00000000000000
78.0 -0.301182631611822 -0.463356726386836 0.709019770834246 -0.438041700248808 0.709019770834246 -0.438041700248808 -0.279593498206086 -0.476694775990761
! Port Impedance 50.00000000000000 0.00000000000000 50.00000000000000 0.00000000000000
79.0 -0.306976628462774 -0.461097795986039 0.703728507764137 -0.444882410923788 0.703728507764136 -0.444882410923788 -0.284856436114186 -0.475081718186809
! Port Impedance 50.00000000000000 0.00000000000000 50.00000000000000 0.00000000000000
80.0 -0.312723521178161 -0.458786016714972 0.698405836892728 -0.451606772805056 0.698405836892728 -0.451606772805056 -0.290072543654269 -0.473432708560995
! Port Impedance 50.00000000000000 0.00000000000000 50.00000000000000 0.00000000000000
81.0 -0.318422928412756 -0.45642055308257 0.693053977709899 -0.458217526340792 0.693053977709899 -0.458217526340792 -0.295241621881636 -0.471747037733921
! Port Impedance 50.00000000000000 0.00000000000000 50.00000000000000 0.00000000000000
82.0 -0.324074432118302 -0.454000645075136 0.687675032410239 -0.464717362053258 0.687675032410239 -0.464717362053258 -0.300363434633532 -0.470024074581345
