!Created with skrf (http://scikit-rf.org).
# MHz S RI R 50.0 
!freq ReS11 ImS11 ReS21 ImS21 ReS12 ImS12 ReS22 ImS22
1.0 0.99937885867638 -0.031786632699992 0.000480827668887 0.015207778756484 0.000480827668886 0.015207778756482 0.999390801454662 -0.03140888167143
! Port Impedance 50.00000000000000 0.00000000000000 50.00000000000000 0.00000000000000
2.0 0.997518797441204 -0.063495890510286 0.001920075700417 0.030345264979745 0.001920075700417 0.030345264979745 0.997566514820138 -0.062741731024168
! Port Impedance 50.00000000000000 0.00000000000000 50.00000000000000 0.00000000000000
3.0 0.994429858810088 -0.095051140365732 0.004308089595094 0.045342899308641 0.004308089595095 0.045342899308641 0.994537019322647 -0.093923249202235
! Port Impedance 50.00000000000000 0.00000000000000 50.00000000000000 0.00000000000000
4.0 0.990128615733994 -0.126377216963234 0.007628940859105 0.060132558612868 0.007628940859106 0.060132558612867 0.990318616847232 -0.12487957946571
! Port Impedance 50.00000000000000 0.00000000000000 50.00000000000000 0.00000000000000
5.0 0.984637930850517 -0.157401118946646 0.011860664795489 0.074648242158123 0.01186066479549 0.074648242158122 0.984933796532222 -0.155538993837928
! Port Impedance 50.00000000000000 0.00000000000000 50.00000000000000 0.00000000000000
6.0 0.977986628187453 -0.188052660906186 0.016975584902889 0.088826710077408 0.01697558490289 0.088826710077408 0.978410911527199 -0.185832534641862
! Port Impedance 50.00000000000000 0.00000000000000 50.00000000000000 0.00000000000000
7.0 0.970209086508168 -0.218265069149243 0.022940714514203 0.102608066359424 0.022940714514204 0.102608066359424 0.970783778875439 -0.215694600592435
! Port Impedance 50.00000000000000 0.00000000000000 50.00000000000000 0.00000000000000
8.0 0.96134476495256 -0.24797551087534 0.029718225209571 0.115936275918033 0.029718225209572 0.115936275918033 0.962091212826369 -0.245063467377064
! Port Impedance 50.00000000000000 0.00000000000000 50.00000000000000 0.00000000000000
9.000000000000002 0.951437673035829 -0.277125548600808 0.037265970054082 0.128759607651712 0.037265970054083 0.128759607651711 0.952376503416072 -0.273881734700064
! Port Impedance 50.00000000000000 0.00000000000000 50.00000000000000 0.00000000000000
10.000000000000002 0.940535797996187 -0.305661514044585 0.045538048784302 0.141030997766314 0.045538048784303 0.141030997766314 0.941686853090979 -0.302096694093729
! Port Impedance 50.00000000000000 0.00000000000000 50.00000000000000 0.00000000000000
11.0 0.928690502919184 -0.333534798118323 0.054485401635074 0.152708330049032 0.054485401635075 0.152708330049031 0.930072784583645 -0.329660614192512
! Port Impedance 50.00000000000000 0.00000000000000 50.00000000000000 0.00000000000000
12.0 0.915955909024258 -0.360702056054736 0.064056418540726 0.163754632153015 0.064056418540727 0.163754632153015 0.917587533209135 -0.356530942519498
! Port Impedance 50.00000000000000 0.00000000000000 50.00000000000000 0.00000000000000
13.000000000000002 0.902388275015602 -0.387125328962083 0.074197550925469 0.174138189187251 0.07419755092547 0.17413818918725 0.904286436275135 -0.382670425052099
! Port Impedance 50.00000000000000 0.00000000000000 50.00000000000000 0.00000000000000
14.000000000000002 0.888045385530581 -0.412772085128535 0.084853914160588 0.183832577924841 0.084853914160589 0.183832577924841 0.890226331444111 -0.408047146836882
! Port Impedance 50.00000000000000 0.00000000000000 50.00000000000000 0.00000000000000
15.0 0.872985959534333 -0.437615186155107 0.095969869941844 0.19281662668268 0.095969869941845 0.19281662668268 0.875464974720613 -0.432634498650136
! Port Impedance 50.00000000000000 0.00000000000000 50.00000000000000 0.00000000000000
16.0 0.857269088087372 -0.461632784427386 0.107489579251762 0.201074307344428 0.107489579251762 0.201074307344428 0.860060487337806 -0.456411076109116
! Port Impedance 50.00000000000000 0.00000000000000 50.00000000000000 0.00000000000000
17.0 0.840953709334337 -0.484808159521926 0.119357518137933 0.208594567074492 0.119357518137934 0.208594567074492 0.844070839264426 -0.479360518707042
! Port Impedance 50.00000000000000 0.00000000000000 50.00000000000000 0.00000000000000
18.000000000000004 0.824098126905664 -0.50712950187961 0.131518950182209 0.215371108000125 0.13151895018221 0.215371108000125 0.827553375423609 -0.501471296969467
! Port Impedance 50.00000000000000 0.00000000000000 50.00000000000000 0.00000000000000
19.000000000000004 0.80675957626204 -0.528589652478988 0.143920351184613 0.221402123535017 0.143920351184613 0.221402123535017 0.810564389080127 -0.522736456323795
! Port Impedance 50.00000000000000 0.00000000000000 50.00000000000000 0.00000000000000
20.0 0.78899384190714 -0.549185807334394 0.156509783177644 0.226690000107675 0.156509783177644 0.226690000107675 0.793158745274148 -0.54315332636411
! Port Impedance 50.00000000000000 0.00000000000000 50.00000000000000 0.00000000000000
21.0 0.770854926899145 -0.568919195463763 0.169237216370049 0.2312409928783 0.16923721637005 0.2312409928783 0.775389555708748 -0.562723204016434
! Port Impedance 50.00000000000000 0.00000000000000 50.00000000000000 0.00000000000000
22.000000000000004 0.752394774744755 -0.587794738563314 0.182054798955168 0.235064883622154 0.182054798955169 0.235064883622154 0.757307905173553 -0.581451018708419
! Port Impedance 50.00000000000000 0.00000000000000 50.00000000000000 0.00000000000000
23.0 0.733663042588228 -0.605820700037429 0.194917075881089 0.238174628372263 0.19491707588109 0.238174628372263 0.738962628434457 -0.599344987068153
! Port Impedance 50.00000000000000 0.00000000000000 50.00000000000000 0.00000000000000
24.0 0.714706923626782 -0.623008330309796 0.207781158653122 0.240586001696534 0.207781158653123 0.240586001696534 0.720400135554222 -0.616416263966132
! Port Impedance 50.00000000000000 0.00000000000000 50.00000000000000 0.00000000000000
25.0 0.695571015897762 -0.639371514530938 0.220606849018806 0.242317243678941 0.220606849018806 0.242317243678941 0.701664282835422 -0.632678595916687
! Port Impedance 50.00000000000000 0.00000000000000 50.00000000000000 0.00000000000000
26.000000000000004 0.676297233987696 -0.654926427939195 0.233356719976143 0.243388714822068 0.233356719976143 0.243388714822068 0.68279628599155 -0.648147982010937
! Port Impedance 50.00000000000000 0.00000000000000 50.00000000000000 0.00000000000000
27.000000000000004 0.656924759797724 -0.669691203262823 0.245996157957885 0.243822563224774 0.245996157957885 0.243822563224774 0.66383467174328 -0.662842346697971
! Port Impedance 50.00000000000000 0.00000000000000 50.00000000000000 0.00000000000000
28.0 0.637490028247796 -0.683685613700068 0.258493370294676 0.243642407543738 0.258493370294677 0.243642407543738 0.644815263788718 -0.676781227893983
! Port Impedance 50.00000000000000 0.00000000000000 50.00000000000000 0.00000000000000
29.0 0.618026743693486 -0.696930774205956 0.270819362167231 0.242873038444888 0.270819362167231 0.242873038444888 0.625771198989802 -0.689985483103954
! Port Impedance 50.00000000000000 0.00000000000000 50.00000000000000 0.00000000000000
30.000000000000004 0.598565922843237 -0.709448863066507 0.282947887243614 0.241540140507727 0.282947887243614 0.241540140507727 0.606732969630689 -0.702477015504587
! Port Impedance 50.00000000000000 0.00000000000000 50.00000000000000 0.00000000000000
31.0 0.579135960078099 -0.721262865065659 0.294855376084007 0.23967003587452 0.294855376084007 0.23967003587452 0.587728487716358 -0.714278521272693
! Port Impedance 50.00000000000000 0.00000000000000 50.00000000000000 0.00000000000000
32.0 0.559762711269349 -0.732396336954291 0.30652084620313 0.237289450344261 0.30652084620313 0.237289450344261 0.568783167469912 -0.725413258856928
! Port Impedance 50.00000000000000 0.00000000000000 50.00000000000000 0.00000000000000
33.0 0.540469592441812 -0.742873195417469 0.317925797429663 0.234425302101255 0.317925797429663 0.234425302101255 0.549920022435314 -0.735904840385849
! Port Impedance 50.00000000000000 0.00000000000000 50.00000000000000 0.00000000000000
34.0 0.521277689924058 -0.752717527304719 0.329054095910453 0.231104512839428 0.329054095910453 0.231104512839428 0.531159773880965 -0.745777044980933
! Port Impedance 50.00000000000000 0.00000000000000 50.00000000000000 0.00000000000000
35.0 0.50220587894529 -0.761953421535623 0.339891849791037 0.227353840692944 0.339891849791038 0.227353840692944 0.512520967511749 -0.755053653397137
! Port Impedance 50.00000000000000 0.00000000000000 50.00000000000000 0.00000000000000
36.00000000000001 0.483270947968365 -0.770604821815658 0.350427279272389 0.22319973410772 0.350427279272389 0.22319973410772 0.494020095835028 -0.763758303131723
! Port Impedance 50.00000000000000 0.00000000000000 50.00000000000000 0.00000000000000
37.00000000000001 0.464487726381991 -0.77869539907911 0.360650583429047 0.2186682055717 0.360650583429047 0.2186682055717 0.475671723797532 -0.771914362965319
! Port Impedance 50.00000000000000 0.00000000000000 50.00000000000000 0.00000000000000
38.0 0.445869213491732 -0.786248442438526 0.370553805820409 0.213784723983928 0.370553805820409 0.213784723983928 0.457488615751712 -0.779544825677202
! Port Impedance 50.00000000000000 0.00000000000000 50.00000000000000 0.00000000000000
39.0 0.427426707065303 -0.793286767300041 0.380130700666799 0.208574124323413 0.380130700666799 0.208574124323413 0.439481861938184 -0.78667221768063
! Port Impedance 50.00000000000000 0.00000000000000 50.00000000000000 0.00000000000000
40.0 0.409169929978178 -0.799832639262448 0.38937660103156 0.203060533242051 0.38937660103156 0.203060533242051 0.42166100311153 -0.793318524178502
! Port Impedance 50.00000000000000 0.00000000000000 50.00000000000000 0.00000000000000
41.0 0.39110715373178 -0.805907712409065 0.398288290219719 0.197267309170844 0.398288290219719 0.197267309170844 0.404034152111141 -0.799505128469338
! Port Impedance 50.00000000000000 0.00000000000000 50.00000000000000 0.00000000000000
42.0 0.373245317958076 -0.811532980569925 0.406863877333286 0.19121699555867 0.406863877333286 0.19121699555867 0.386608111438549 -0.805252764038822
! Port Impedance 50.00000000000000 0.00000000000000 50.00000000000000 0.00000000000000
43.0 0.355590145092676 -0.816728740234865 0.415102677743293 0.184931285875628 0.415102677743293 0.184931285875628 0.369388486119968 -0.810581478094408
! Port Impedance 50.00000000000000 0.00000000000000 50.00000000000000 0.00000000000000
44.00000000000001 0.338146249723584 -0.821514563790358 0.423005099019147 0.178430999086814 0.423005099019147 0.178430999086814 0.352379791310092 -0.815510605268604
! Port Impedance 50.00000000000000 0.00000000000000 50.00000000000000 0.00000000000000
45.0 0.320917242209381 -0.825909281856977 0.430572532708744 0.171736064357739 0.430572532708744 0.171736064357739 0.335585554261404 -0.820058750274836
! Port Impedance 50.00000000000000 0.00000000000000 50.00000000000000 0.00000000000000
46.0 0.303905826329814 -0.829930973569178 0.437807252215043 0.164865513833127 0.437807252215042 0.164865513833127 0.31900841042102 -0.824243778378725
! Port Impedance 50.00000000000000 0.00000000000000 50.00000000000000 0.00000000000000
47.0 0.287113890847334 -0.833596963724353 0.444712316895679 0.157837482412389 0.444712316895679 0.157837482412389 0.302650193535771 -0.828082812628934
! Port Impedance 50.00000000000000 0.00000000000000 50.00000000000000 0.00000000000000
48.0 0.270542594958777 -0.836923825814026 0.45129148241179 0.150669213530373 0.451291482411789 0.150669213530373 0.286512019745002 -0.831592236876334
! Port Impedance 50.00000000000000 0.00000000000000 50.00000000000000 0.00000000000000
49.0 0.254192447698814 -0.839927390036673 0.457549117269601 0.143377070037829 0.457549117269601 0.143377070037829 0.27059436572169 -0.834787703695492
! Port Impedance 50.00000000000000 0.00000000000000 50.00000000000000 0.00000000000000
50.0 0.238063381423213 -0.842622755476985 0.463490125431693 0.13597654936067 0.463490125431693 0.13597654936067 0.254897140987833 -0.837684146406394
! Port Impedance 50.00000000000000 0.00000000000000 50.00000000000000 0.00000000000000
51.0 0.222154819552266 -0.845024305719014 0.469119874822187 0.128482302199164 0.469119874822187 0.128482302199164 0.239419754581536 -0.840295794475653
! Port Impedance 50.00000000000000 0.00000000000000 50.00000000000000 0.00000000000000
52.00000000000001 0.206465738794762 -0.847145727239537 0.47444413150972 0.120908154106514 0.47444413150972 0.120908154106514 0.224161176292557 -0.842636191654024
! Port Impedance 50.00000000000000 0.00000000000000 50.00000000000000 0.00000000000000
53.00000000000001 0.190994726102217 -0.849000030002376 0.47946899932217 0.113267129360262 0.47946899932217 0.113267129360262 0.209119992712025 -0.844718216280309
! Port Impedance 50.00000000000000 0.00000000000000 50.00000000000000 0.00000000000000
54.0 0.175740030623521 -0.850599569743927 0.484200864626217 0.105571476609037 0.484200864626217 0.105571476609037 0.194294458362073 -0.846554103250053
! Port Impedance 50.00000000000000 0.00000000000000 50.00000000000000 0.00000000000000
55.0 0.160699610942872 -0.851956071504322 0.48864634599149 0.097832695841137 0.48864634599149 0.097832695841137 0.179682542183762 -0.848155467210622
! Port Impedance 50.00000000000000 0.00000000000000 50.00000000000000 0.00000000000000
56.0 0.14587117789043 -0.853080654017802 0.492812248452518 0.090061566276201 0.492812248452518 0.090061566276201 0.1652819696545 -0.849533326605077
! Port Impedance 50.00000000000000 0.00000000000000 50.00000000000000 0.00000000000000
57.0 0.131252233215956 -0.853983854628498 0.496705522076039 0.082268174865468 0.496705522076039 0.082268174865468 0.151090260912288 -0.85069812821848
! Port Impedance 50.00000000000000 0.00000000000000 50.00000000000000 0.00000000000000
58.0 0.116840104414209 -0.854675654449836 0.500333224556532 0.074461945028878 0.500333224556532 0.074461945028878 0.137104764900559 -0.851659772002124
! Port Impedance 50.00000000000000 0.00000000000000 50.00000000000000 0.00000000000000
59.00000000000001 0.102631975982 -0.855165503522557 0.503702487542824 0.066651665509514 0.503702487542824 0.066651665509514 0.12332269025318 -0.85242763584792
! Port Impedance 50.00000000000000 0.00000000000000 50.00000000000000 0.00000000000000
60.00000000000001 0.088624917381314 -0.855462345773768 0.506820486438467 0.058845519007167 0.506820486438467 0.058845519007167 0.10974113275129 -0.853010600204038
! Port Impedance 50.00000000000000 0.00000000000000 50.00000000000000 0.00000000000000
61.0 0.074815907969654 -0.855574643607301 0.509694413403696 0.051051110491211 0.509694413403696 0.051051110491211 0.096357099868195 -0.853417072314203
! Port Impedance 50.00000000000000 0.00000000000000 50.00000000000000 0.00000000000000
62.0 0.061201859148011 -0.855510401989562 0.512331453310647 0.043275495023177 0.512331453310647 0.043275495023177 0.083167532563774 -0.853655009963564
! Port Impedance 50.00000000000000 0.00000000000000 50.00000000000000 0.00000000000000
63.0 0.047779633963456 -0.85527719192089 0.514738762412545 0.035525204974619 0.514738762412545 0.035525204974619 0.070169324573375 -0.8537319446206
! Port Impedance 50.00000000000000 0.00000000000000 50.00000000000000 0.00000000000000
64.0 0.034546064389943 -0.854882173205998 0.516923449501076 0.027806276546099 0.516923449501076 0.027806276546099 0.057359339411162 -0.853655003890017
! Port Impedance 50.00000000000000 0.00000000000000 50.00000000000000 0.00000000000000
65.0 0.021497966497011 -0.854332116457384 0.518892559339508 0.020124275513693 0.518892559339508 0.020124275513692 0.044734425294303 -0.853430933211555
! Port Impedance 50.00000000000000 0.00000000000000 50.00000000000000 0.00000000000000
66.0 0.008632153702363 -0.853633424283138 0.520653058172554 0.012484322147239 0.520653058172554 0.012484322147239 0.03229142818078 -0.85306611675693
! Port Impedance 50.00000000000000 0.00000000000000 50.00000000000000 0.00000000000000
67.00000000000001 -0.004054551709376 -0.85279215162562 0.5222118211272 0.004891115259921 0.5222118211272 0.004891115259921 0.020027203100204 -0.852566597491865
! Port Impedance 50.00000000000000 0.00000000000000 50.00000000000000 0.00000000000000
68.0 -0.016565308632707 -0.851814025230272 0.523575621331706 -0.002651044638123 0.523575621331706 -0.002651044638123 0.007938623943937 -0.851938096382862
! Port Impedance 50.00000000000000 0.00000000000000 50.00000000000000 0.00000000000000
69.0 -0.02890324859588 -0.85070446223469 0.524751120592506 -0.010138233098248 0.524751120592506 -0.010138233098249 -0.00397740813175 -0.851186030738926
! Port Impedance 50.00000000000000 0.00000000000000 50.00000000000000 0.00000000000000
70.0 -0.041071468480216 -0.849468587877111 0.525744861480768 -0.017566880410494 0.525744861480768 -0.017566880410494 -0.015723957547941 -0.850315531687467
! Port Impedance 50.00000000000000 0.00000000000000 50.00000000000000 0.00000000000000
71.00000000000001 -0.053073024371939 -0.848111252331052 0.526563260691882 -0.024933751198278 0.526563260691882 -0.024933751198278 -0.02730404826067 -0.849331460790972
! Port Impedance 50.00000000000000 0.00000000000000 50.00000000000000 0.00000000000000
72.00000000000001 -0.064910926425396 -0.846637046679004 0.527212603551994 -0.032235924922807 0.527212603551994 -0.032235924922807 -0.038720658714666 -0.84823842581715
! Port Impedance 50.00000000000000 0.00000000000000 50.00000000000000 0.00000000000000
73.00000000000001 -0.076588134626982 -0.845050318043108 0.52769903955599 -0.039470777284026 0.52769903955599 -0.039470777284026 -0.049976717684367 -0.847040795680196
! Port Impedance 50.00000000000000 0.00000000000000 50.00000000000000 0.00000000000000
74.0 -0.088107555358865 -0.843355183894709 0.528028578830962 -0.046635962500551 0.528028578830962 -0.046635962500551 -0.061075100902896 -0.845742714574734
! Port Impedance 50.00000000000000 0.00000000000000 50.00000000000000 0.00000000000000
75.0 -0.099472038670703 -0.841555545567837 0.528207089428199 -0.053729396447578 0.528207089428199 -0.053729396447578 -0.072018628388657 -0.844348115327077
! Port Impedance 50.00000000000000 0.00000000000000 50.00000000000000 0.00000000000000
76.0 -0.110684376176045 -0.839655101003979 0.528240295355146 -0.060749240628996 0.528240295355147 -0.060749240628995 -0.0828100623876 -0.842860731990746
! Port Impedance 50.00000000000000 0.00000000000000 50.00000000000000 0.00000000000000
77.0 -0.121747299497954 -0.837657356757243 0.528133775266589 -0.067693886957912 0.528133775266589 -0.067693886957913 -0.093452105856881 -0.841284111714899
! Port Impedance 50.00000000000000 0.00000000000000 50.00000000000000 0.00000000000000
78.0 -0.132663479195631 -0.835565639290141 0.527892961741514 -0.074561943318255 0.527892961741514 -0.074561943318255 -0.103947401422819 -0.839621625915432
! Port Impedance 50.00000000000000 0.00000000000000 50.00000000000000 0.00000000000000
79.0 -0.143435524110549 -0.833383105590958 0.527523141078825 -0.081352219879089 0.527523141078825 -0.081352219879089 -0.114298530752603 -0.837876480779217
! Port Impedance 50.00000000000000 0.00000000000000 50.00000000000000 0.00000000000000
80.0 -0.154065981076695 -0.831112753143925 0.52702945355121 -0.088063716132666 0.52702945355121 -0.088063716132666 -0.124508014285292 -0.836051727132247
! Port Impedance 50.00000000000000 0.00000000000000 50.00000000000000 0.00000000000000
81.0 -0.164557334945194 -0.828757429283439 0.526416894062138 -0.094695608626893 0.526416894062138 -0.094695608626893 -0.134578311273134 -0.834150269702424
! Port Impedance 50.00000000000000 0.00000000000000 50.00000000000000 0.00000000000000
82.0 -0.174912008878729 -0.826319839963257 0.525690313156175 -0.10124723936292 0.525690313156175 -0.10124723936292 -0.144511820089363 -0.832174875807468
! Port Impedance 50.00000000000000 0.00000000000000 50.00000000000000 0.00000000000000
