!Created with skrf (http://scikit-rf.org).
# MHz S RI R 50.0 
!freq ReS11 ImS11 ReS21 ImS21 ReS12 ImS12 ReS22 ImS22
1.0 0.996956515274114 -0.062675757494245 0.002907318490355 0.046270985119107 0.002907318490359 0.046270985119103 0.996960840332216 -0.062606917016398
! Port Impedance 50.00000000000000 0.00000000000000 50.00000000000000 0.00000000000000
2.0 0.987925286249087 -0.124412378341454 0.011530133760016 0.091609199048372 0.011530133760017 0.091609199048367 0.987942620213641 -0.124274648135014
! Port Impedance 50.00000000000000 0.00000000000000 50.00000000000000 0.00000000000000
3.0 0.973195840615174 -0.184321990633276 0.025579172543249 0.135133140696039 0.025579172543248 0.135133140696036 0.973234964492045 -0.184115291233863
! Port Impedance 50.00000000000000 0.00000000000000 50.00000000000000 0.00000000000000
4.0 0.953224784931833 -0.241613465756826 0.044598259530181 0.176058052015017 0.04459825953018 0.176058052015015 0.953294631973356 -0.241337722906489
! Port Impedance 50.00000000000000 0.00000000000000 50.00000000000000 0.00000000000000
5.0 0.928600899435952 -0.295627417001988 0.067999225671547 0.213730916515506 0.067999225671546 0.213730916515504 0.928710597223882 -0.295282609835397
! Port Impedance 50.00000000000000 0.00000000000000 50.00000000000000 0.00000000000000
6.0 0.900003331898314 -0.345857905552878 0.095103720925198 0.247652161432897 0.095103720925197 0.247652161432896 0.900162228964525 -0.345444122475715
! Port Impedance 50.00000000000000 0.00000000000000 50.00000000000000 0.00000000000000
7.0 0.868158060171756 -0.391960211337788 0.125186758091264 0.277483422054647 0.125186758091263 0.277483422054645 0.868375736581145 -0.391477708494775
! Port Impedance 50.00000000000000 0.00000000000000 50.00000000000000 0.00000000000000
8.0 0.833797235997661 -0.433745982172481 0.157517374429056 0.303042682094472 0.157517374429055 0.303042682094471 0.834083498988567 -0.433195239866514
! Port Impedance 50.00000000000000 0.00000000000000 50.00000000000000 0.00000000000000
9.000000000000002 0.797624809186685 -0.471168451308947 0.191393011357789 0.324289480764274 0.191393011357788 0.324289480764273 0.797989676199234 -0.470550224723806
! Port Impedance 50.00000000000000 0.00000000000000 50.00000000000000 0.00000000000000
10.000000000000002 0.760290344612785 -0.504301066730092 0.226165699466763 0.341303530522235 0.226165699466762 0.341303530522234 0.760744016737206 -0.503616428534447
! Port Impedance 50.00000000000000 0.00000000000000 50.00000000000000 0.00000000000000
11.0 0.722371533759772 -0.533312863966565 0.26125954701547 0.354260077907755 0.261259547015469 0.354260077907755 0.722924362823581 -0.532563237602568
! Port Impedance 50.00000000000000 0.00000000000000 50.00000000000000 0.00000000000000
12.0 0.68436480045708 -0.558443426057786 0.296180132409723 0.363404851629076 0.296180132409723 0.363404851629075 0.6850272527505 -0.557630609566821
! Port Impedance 50.00000000000000 0.00000000000000 50.00000000000000 0.00000000000000
13.000000000000002 0.646682701807097 -0.579979538435863 0.330517099904074 0.36903070608939 0.330517099904074 0.369030706089391 0.647465320967551 -0.579105719453282
! Port Impedance 50.00000000000000 0.00000000000000 50.00000000000000 0.00000000000000
14.000000000000002 0.609656512484462 -0.598234863696216 0.36394157066132 0.371457285576914 0.363941570661319 0.371457285576914 0.610569883465828 -0.59730262673765
! Port Impedance 50.00000000000000 0.00000000000000 50.00000000000000 0.00000000000000
15.0 0.573542369236284 -0.613533268847933 0.396199992654402 0.371014341844554 0.396199992654401 0.371014341844554 0.574597084688615 -0.61254559624456
! Port Impedance 50.00000000000000 0.00000000000000 50.00000000000000 0.00000000000000
16.0 0.538529535840844 -0.626195905008925 0.427105869434334 0.368028805077525 0.427105869434333 0.368028805077525 0.539736165693573 -0.62515617288696
! Port Impedance 50.00000000000000 0.00000000000000 50.00000000000000 0.00000000000000
17.0 0.504749628930284 -0.636531781505535 0.456530527588789 0.362815350174484 0.456530527588789 0.362815350174484 0.506118693542759 -0.635443752110488
! Port Impedance 50.00000000000000 0.00000000000000 50.00000000000000 0.00000000000000
18.000000000000004 0.472285947898399 -0.644831373570925 0.484393779845141 0.355669997463865 0.484393779845141 0.355669997463865 0.473827894824164 -0.643699185067352
! Port Impedance 50.00000000000000 0.00000000000000 50.00000000000000 0.00000000000000
19.000000000000004 0.441182330739869 -0.651362720142652 0.510655062095583 0.346866204266814 0.510655062095583 0.346866204266814 0.442907514936703 -0.65019087481968
! Port Impedance 50.00000000000000 0.00000000000000 50.00000000000000 0.00000000000000
20.0 0.411451188533972 -0.65636946783821 0.535305391713133 0.336652903295101 0.535305391713133 0.336652903295101 0.41336985572267 -0.65516281945029
! Port Impedance 50.00000000000000 0.00000000000000 50.00000000000000 0.00000000000000
21.0 0.38308054749971 -0.660070366055294 0.558360318281293 0.325253992748365 0.558360318281293 0.325253992748365 0.385202820310656 -0.658834106844982
! Port Impedance 50.00000000000000 0.00000000000000 50.00000000000000 0.00000000000000
22.000000000000004 0.356040052351318 -0.662659791117258 0.579853913035366 0.312868855960897 0.579853913035366 0.312868855960897 0.358375918880157 -0.661399438910936
! Port Impedance 50.00000000000000 0.00000000000000 50.00000000000000 0.00000000000000
23.0 0.330285966294337 -0.664308957237954 0.599833761687452 0.299673568315546 0.599833761687452 0.299673568315546 0.332845270700495 -0.663030342879094
! Port Impedance 50.00000000000000 0.00000000000000 50.00000000000000 0.00000000000000
24.0 0.305765251151121 -0.665167548298551 0.618356877149663 0.285822525373509 0.618356877149664 0.285822525373509 0.308557685963143 -0.663876803584936
! Port Impedance 50.00000000000000 0.00000000000000 50.00000000000000 0.00000000000000
25.0 0.282418835017103 -0.665365571502183 0.635486424753402 0.271450293253244 0.635486424753403 0.271450293253244 0.285453934847894 -0.664069117720006
! Port Impedance 50.00000000000000 0.00000000000000 50.00000000000000 0.00000000000000
26.000000000000004 0.260184182303044 -0.665015289772949 0.651289145107145 0.256673538101522 0.651289145107145 0.256673538101522 0.263471318720019 -0.66371982686791
! Port Impedance 50.00000000000000 0.00000000000000 50.00000000000000 0.00000000000000
27.000000000000004 0.238997278069059 -0.664213134236936 0.665833362684778 0.241592935977486 0.665833362684778 0.241592935977486 0.242545655405711 -0.662925630625726
! Port Impedance 50.00000000000000 0.00000000000000 50.00000000000000 0.00000000000000
28.0 0.218794129580569 -0.663041532336055 0.679187477171043 0.22629499866211 0.679187477171044 0.226294998662109 0.222612781584299 -0.661769215314487
! Port Impedance 50.00000000000000 0.00000000000000 50.00000000000000 0.00000000000000
29.0 0.199511876664654 -0.661570612506151 0.691418846319502 0.210853776526004 0.691418846319502 0.210853776526005 0.203609663361612 -0.660320959375925
! Port Impedance 50.00000000000000 0.00000000000000 50.00000000000000 0.00000000000000
30.000000000000004 0.181089587952752 -0.659859765118298 0.702592982187041 0.195332417485215 0.702592982187042 0.195332417485215 0.185475193874719 -0.658640494575203
! Port Impedance 50.00000000000000 0.00000000000000 50.00000000000000 0.00000000000000
31.0 0.163468811361536 -0.657959051485932 0.712772994234629 0.179784574999944 0.71277299423463 0.179784574999943 0.16815074327961 -0.656778115805007
! Port Impedance 50.00000000000000 0.00000000000000 50.00000000000000 0.00000000000000
32.0 0.146593930997763 -0.65591046237819 0.722019225202665 0.164255665347819 0.722019225202666 0.164255665347819 0.151580516478768 -0.654776039893991
! Port Impedance 50.00000000000000 0.00000000000000 50.00000000000000 0.00000000000000
33.0 0.13041237655471 -0.653749032195839 0.730389034901461 0.148783981080172 0.730389034901462 0.148783981080172 0.135711762696502 -0.65266952022866
! Port Impedance 50.00000000000000 0.00000000000000 50.00000000000000 0.00000000000000
34.0 0.114874720574667 -0.651503818661858 0.737936696160389 0.13340167027271 0.73793669616039 0.13340167027271 0.120494872956219 -0.650487826820266
! Port Impedance 50.00000000000000 0.00000000000000 50.00000000000000 0.00000000000000
35.0 0.099934692079602 -0.649198759560831 0.744713374289835 0.1181355929304 0.744713374289836 0.1181355929304 0.105883394068584 -0.648255103354541
! Port Impedance 50.00000000000000 0.00000000000000 50.00000000000000 0.00000000000000
36.00000000000001 0.085549129698613 -0.646853418297409 0.750767167613194 0.103008066960047 0.750767167613194 0.103008066960047 0.091833981637788 -0.645991113109371
! Port Impedance 50.00000000000000 0.00000000000000 50.00000000000000 0.00000000000000
37.00000000000001 0.071677890984504 -0.644483630758311 0.756143191241835 0.088037515088636 0.756143191241835 0.088037515088636 0.078306309853642 -0.643711886040796
! Port Impedance 50.00000000000000 0.00000000000000 50.00000000000000 0.00000000000000
38.0 0.05828373254432 -0.642102064392154 0.760883690644199 0.073239024753674 0.7608836906442 0.073239024753674 0.065262951612042 -0.641430278146922
! Port Impedance 50.00000000000000 0.00000000000000 50.00000000000000 0.00000000000000
39.0 0.045332170865306 -0.639718700454611 0.765028174427393 0.058624831222551 0.765028174427393 0.058624831222551 0.052669239512377 -0.63915645394406
! Port Impedance 50.00000000000000 0.00000000000000 50.00000000000000 0.00000000000000
40.0 0.032791331975542 -0.637341249011774 0.768613558445017 0.044204733758207 0.768613558445018 0.044204733758207 0.040493115647568 -0.636898301691049
! Port Impedance 50.00000000000000 0.00000000000000 50.00000000000000 0.00000000000000
41.0 0.020631795851796 -0.634975505445263 0.771674315292984 0.029986453531319 0.771674315292985 0.029986453531318 0.028704976134833 -0.634661790102305
! Port Impedance 50.00000000000000 0.00000000000000 50.00000000000000 0.00000000000000
42.0 0.008826439955566 -0.63262565622714 0.774242624823124 0.015975941036997 0.774242624823124 0.015975941036997 0.017277514766513 -0.632451274320307
! Port Impedance 50.00000000000000 0.00000000000000 50.00000000000000 0.00000000000000
43.0 -0.002649714940427 -0.630294540821672 0.776348522517787 0.002177639865629 0.776348522517788 0.002177639865629 0.006185568955684 -0.630269758006384
! Port Impedance 50.00000000000000 0.00000000000000 50.00000000000000 0.00000000000000
44.00000000000001 -0.013819654399088 -0.627983875726545 0.778020043505679 -0.01140528717586 0.77802004350568 -0.01140528717586 -0.004594029811904 -0.628119117565086
! Port Impedance 50.00000000000000 0.00000000000000 50.00000000000000 0.00000000000000
45.0 -0.02470451393755 -0.62569444590005 0.779283360715022 -0.024770764349527 0.779283360715022 -0.024770764349527 -0.01508259948577 -0.626000293749192
! Port Impedance 50.00000000000000 0.00000000000000 50.00000000000000 0.00000000000000
46.0 -0.035323715643822 -0.623426268131861 0.780162916205092 -0.03791763713798 0.780162916205092 -0.037917637137981 -0.025299743969184 -0.62391345520511
! Port Impedance 50.00000000000000 0.00000000000000 50.00000000000000 0.00000000000000
47.0 -0.045695097237756 -0.621178730305165 0.780681545125251 -0.05084553032333 0.780681545125252 -0.050845530323331 -0.035263482083574 -0.621858137907121
! Port Impedance 50.00000000000000 0.00000000000000 50.00000000000000 0.00000000000000
48.0 -0.055835033322658 -0.61895070996015 0.780860592054066 -0.063554726595836 0.780860592054067 -0.063554726595837 -0.044990368727717 -0.619833363891481
! Port Impedance 50.00000000000000 0.00000000000000 50.00000000000000 0.00000000000000
49.0 -0.065758548796933 -0.616740675098706 0.780720019692636 -0.076046062764285 0.780720019692637 -0.076046062764286 -0.05449560820114 -0.617837742230895
! Port Impedance 50.00000000000000 0.00000000000000 50.00000000000000 0.00000000000000
50.0 -0.075479424554547 -0.614546769760796 0.780278510044882 -0.08832084104958 0.780278510044882 -0.088320841049581 -0.063793159820707 -0.61586955478041
! Port Impedance 50.00000000000000 0.00000000000000 50.00000000000000 0.00000000000000
51.0 -0.085010295714241 -0.612366886547985 0.779553558327998 -0.100380753298022 0.779553558327999 -0.100380753298023 -0.07289583607055 -0.613926828870634
! Port Impedance 50.00000000000000 0.00000000000000 50.00000000000000 0.00000000000000
52.00000000000001 -0.094362742692005 -0.610198727962765 0.778561559930093 -0.112227816257575 0.778561559930094 -0.112227816257575 -0.081815393600061 -0.612007398817223
! Port Impedance 50.00000000000000 0.00000000000000 50.00000000000000 0.00000000000000
53.00000000000001 -0.103547375478187 -0.608039858167665 0.777317890778186 -0.123864316324937 0.777317890778187 -0.123864316324937 -0.090562617431557 -0.610108957850884
! Port Impedance 50.00000000000000 0.00000000000000 50.00000000000000 0.00000000000000
54.0 -0.11257391150683 -0.605887746540375 0.775836981505305 -0.135292762398866 0.775836981505305 -0.135292762398866 -0.099147398765427 -0.608229101844225
! Port Impedance 50.00000000000000 0.00000000000000 50.00000000000000 0.00000000000000
55.0 -0.121451247515856 -0.603739804205364 0.774132385815745 -0.146515845670765 0.774132385815745 -0.146515845670765 -0.107578806781556 -0.606365366016056
! Port Impedance 50.00000000000000 0.00000000000000 50.00000000000000 0.00000000000000
56.0 -0.130187525796595 -0.6015934145544 0.772216843446838 -0.157536405351372 0.772216843446838 -0.157536405351372 -0.115865154835712 -0.604515255625562
! Port Impedance 50.00000000000000 0.00000000000000 50.00000000000000 0.00000000000000
57.0 -0.138790195223239 -0.599445958624265 0.770102338117032 -0.168357399476273 0.770102338117032 -0.168357399476273 -0.124014061441636 -0.602676271524613
! Port Impedance 50.00000000000000 0.00000000000000 50.00000000000000 0.00000000000000
58.0 -0.147266067439409 -0.597294836076308 0.767800150836156 -0.17898188005629 0.767800150836156 -0.178981880056291 -0.132032506416136 -0.600845931312832
! Port Impedance 50.00000000000000 0.00000000000000 50.00000000000000 0.00000000000000
59.00000000000001 -0.155621368562073 -0.59513748241664 0.765320908936181 -0.18941297194433 0.765320908936181 -0.18941297194433 -0.139926882547527 -0.599021786734135
! Port Impedance 50.00000000000000 0.00000000000000 50.00000000000000 0.00000000000000
60.00000000000001 -0.16386178674398 -0.59297138300494 0.762674631161159 -0.199653854880779 0.762674631161159 -0.199653854880779 -0.147703043128454 -0.597201437862676
! Port Impedance 50.00000000000000 0.00000000000000 50.00000000000000 0.00000000000000
61.0 -0.171992515918942 -0.590794084321591 0.759870769133474 -0.209707748257982 0.759870769133474 -0.209707748257981 -0.155366345672446 -0.595382544549244
! Port Impedance 50.00000000000000 0.00000000000000 50.00000000000000 0.00000000000000
62.0 -0.180018295990307 -0.588603202902962 0.756918245500812 -0.219577898197104 0.756918245500812 -0.219577898197105 -0.162921692130057 -0.593562835521938
! Port Impedance 50.00000000000000 0.00000000000000 50.00000000000000 0.00000000000000
63.0 -0.187943449891786 -0.586396432267935 0.753825489010114 -0.229267566646465 0.753825489010114 -0.229267566646465 -0.170373565823568 -0.591740115524258
! Port Impedance 50.00000000000000 0.00000000000000 50.00000000000000 0.00000000000000
64.0 -0.195771917480603 -0.58417154818007 0.750600466822248 -0.238780022118968 0.750600466822248 -0.238780022118968 -0.177726065479863 -0.589912270714708
! Port Impedance 50.00000000000000 0.00000000000000 50.00000000000000 0.00000000000000
65.0 -0.203507286855671 -0.5819264124458 0.747250714233682 -0.248118531931095 0.747250714233681 -0.248118531931095 -0.184982936459136 -0.58807727266993
! Port Impedance 50.00000000000000 0.00000000000000 50.00000000000000 0.00000000000000
66.0 -0.211152823070483 -0.57965897550765 0.743783362071167 -0.257286355653045 0.743783362071167 -0.257286355653045 -0.19214759950207 -0.586233181149138
! Port Impedance 50.00000000000000 0.00000000000000 50.00000000000000 0.00000000000000
67.00000000000001 -0.21871149454808 -0.577367278004958 0.740205161938256 -0.266286739620758 0.740205161938256 -0.266286739620758 -0.199223177157807 -0.584378145833732
! Port Impedance 50.00000000000000 0.00000000000000 50.00000000000000 0.00000000000000
68.0 -0.226185997365128 -0.57504945146753 0.736522509500215 -0.275122912348021 0.736522509500215 -0.275122912348021 -0.2062125180886 -0.582510407199096
! Port Impedance 50.00000000000000 0.00000000000000 50.00000000000000 0.00000000000000
69.0 -0.233578777578438 -0.572703718281406 0.732741465974316 -0.283798080705896 0.732741465974316 -0.283798080705897 -0.213118219423226 -0.580628296657996
! Port Impedance 50.00000000000000 0.00000000000000 50.00000000000000 0.00000000000000
70.0 -0.240892051752366 -0.570328391046507 0.728867777978377 -0.292315426755658 0.728867777978377 -0.292315426755658 -0.219942647317406 -0.578730236095256
! Port Impedance 50.00000000000000 0.00000000000000 50.00000000000000 0.00000000000000
71.00000000000001 -0.248127825832376 -0.567921871429058 0.724906895877214 -0.300678105137806 0.724906895877215 -0.300678105137807 -0.22668795586648 -0.576814736896486
! Port Impedance 50.00000000000000 0.00000000000000 50.00000000000000 0.00000000000000
72.00000000000001 -0.255287912498034 -0.56548264859718 0.720863990754562 -0.308889240933833 0.720863990754562 -0.308889240933833 -0.233356104503521 -0.574880398559168
! Port Impedance 50.00000000000000 0.00000000000000 50.00000000000000 0.00000000000000
73.00000000000001 -0.262373947117594 -0.563009297315583 0.716743970126802 -0.316951927929459 0.716743970126802 -0.316951927929459 -0.23994887400497 -0.572925906961921
! Port Impedance 50.00000000000000 0.00000000000000 50.00000000000000 0.00000000000000
74.0 -0.269387402416151 -0.560500475764489 0.712551492504641 -0.324869227218436 0.71255149250464 -0.324869227218436 -0.246467881215726 -0.570950032357003
! Port Impedance 50.00000000000000 0.00000000000000 50.00000000000000 0.00000000000000
75.0 -0.276329601959998 -0.557954923138698 0.708290980899463 -0.332644166094869 0.708290980899463 -0.332644166094869 -0.252914592596221 -0.568951627141876
! Port Impedance 50.00000000000000 0.00000000000000 50.00000000000000 0.00000000000000
76.0 -0.283201732551252 -0.555371457074672 0.703966635362537 -0.340279737189624 0.703966635362537 -0.340279737189624 -0.259290336685515 -0.56692962345764
! Port Impedance 50.00000000000000 0.00000000000000 50.00000000000000 0.00000000000000
77.0 -0.290004855618969 -0.552748970946641 0.699582444637395 -0.347778897812919 0.699582444637395 -0.347778897812919 -0.265596315566523 -0.564883030655308
! Port Impedance 50.00000000000000 0.00000000000000 50.00000000000000 0.00000000000000
78.0 -0.296739917685816 -0.55008643106678 0.695142196998575 -0.355144569470765 0.695142196998576 -0.355144569470765 -0.271833615412404 -0.562810932664877
! Port Impedance 50.00000000000000 0.00000000000000 50.00000000000000 0.00000000000000
79.0 -0.303407759982761 -0.547382873819339 0.690649490343403 -0.362379637527738 0.690649490343404 -0.362379637527738 -0.2780032161865 -0.560712485297094
! Port Impedance 50.00000000000000 0.00000000000000 50.00000000000000 0.00000000000000
80.0 -0.310009127278298 -0.544637402754242 0.686107741597535 -0.369486950992657 0.686107741597535 -0.369486950992657 -0.284106000562275 -0.558586913503362
! Port Impedance 50.00000000000000 0.00000000000000 50.00000000000000 0.00000000000000
81.0 -0.3165446759832 -0.541849185661722 0.6815201954896 -0.376469322407249 0.6815201954896 -0.376469322407249 -0.290142762124201 -0.556433508615367
! Port Impedance 50.00000000000000 0.00000000000000 50.00000000000000 0.00000000000000
82.0 -0.323014981586787 -0.539017451646377 0.676889932745351 -0.383329527820891 0.676889932745351 -0.383329527820891 -0.296114212905533 -0.554251625582767
! Port Impedance 50.00000000000000 0.00000000000000 50.00000000000000 0.00000000000000
