!Created with skrf (http://scikit-rf.org).
# MHz S RI R 50.0 
!freq ReS11 ImS11 ReS21 ImS21 ReS12 ImS12 ReS22 ImS22
1.0 0.990166772950003 -0.106215170618892 0.009746146367236 0.09051581154872 0.009746146367221 0.090515811548751 0.99008173547934 -0.107004934464086
! Port Impedance 50.00000000000000 0.00000000000000 50.00000000000000 0.00000000000000
2.0 0.961742197182006 -0.206917911831802 0.037904564784021 0.175499768443001 0.037904564784025 0.175499768443055 0.961412091451018 -0.208446309454837
! Port Impedance 50.00000000000000 0.00000000000000 50.00000000000000 0.00000000000000
3.0 0.917668780448299 -0.297561959199578 0.081519323460833 0.250390677553186 0.081519323460862 0.250390677553256 0.916961057581688 -0.299735759334953
! Port Impedance 50.00000000000000 0.00000000000000 50.00000000000000 0.00000000000000
4.0 0.862038848963976 -0.375198130649769 0.13647950592155 0.312231857241992 0.13647950592161 0.312231857242064 0.860859178287952 -0.377896923494941
! Port Impedance 50.00000000000000 0.00000000000000 50.00000000000000 0.00000000000000
5.0 0.79924416258992 -0.438620360897682 0.198373559337959 0.359817845438609 0.198373559338045 0.359817845438674 0.797539220674993 -0.441712845911563
! Port Impedance 50.00000000000000 0.00000000000000 50.00000000000000 0.00000000000000
6.0 0.733278917211122 -0.488103695827453 0.263189539895109 0.39343116512487 0.263189539895216 0.393431165124918 0.731032663893924 -0.491461520720782
! Port Impedance 50.00000000000000 0.00000000000000 50.00000000000000 0.00000000000000
7.0 0.667337382325901 -0.524935481159992 0.327719349186138 0.414371320273514 0.327719349186258 0.41437132027354 0.664563576943996 -0.528442699757333
! Port Impedance 50.00000000000000 0.00000000000000 50.00000000000000 0.00000000000000
8.0 0.603696336889162 -0.550933302635872 0.389676844445177 0.424470481643628 0.389676844445302 0.424470481643631 0.600429956050174 -0.554491327828468
! Port Impedance 50.00000000000000 0.00000000000000 50.00000000000000 0.00000000000000
9.000000000000002 0.543790969389098 -0.56806399044452 0.447621582392949 0.425710708042759 0.44762158239307 0.425710708042738 0.540080334113877 -0.571592986650148
! Port Impedance 50.00000000000000 0.00000000000000 50.00000000000000 0.00000000000000
10.000000000000002 0.488382832369732 -0.578196877018369 0.500790079205276 0.419976046900306 0.50079007920539 0.419976046900268 0.484283304817458 -0.58163484669599
! Port Impedance 50.00000000000000 0.00000000000000 50.00000000000000 0.00000000000000
11.0 0.437745882885167 -0.582974792166519 0.548908899926375 0.408922921155097 0.548908899926475 0.408922921155043 0.433315301666499 -0.586275456593367
! Port Impedance 50.00000000000000 0.00000000000000 50.00000000000000 0.00000000000000
12.0 0.391830591275681 -0.583768293510214 0.592029781485792 0.393934139606594 0.592029781485875 0.39393413960653 0.387126240416268 -0.586898545619557
! Port Impedance 50.00000000000000 0.00000000000000 50.00000000000000 0.00000000000000
13.000000000000002 0.350391610398052 -0.581679750858785 0.630401364824527 0.376122993778972 0.630401364824594 0.376122993778903 0.345468381448752 -0.58461714600169
! Port Impedance 50.00000000000000 0.00000000000000 50.00000000000000 0.00000000000000
14.000000000000002 0.313078986743183 -0.577572371098407 0.664377554795145 0.356362411752984 0.664377554795197 0.356362411752913 0.307988393362823 -0.580302888788896
! Port Impedance 50.00000000000000 0.00000000000000 50.00000000000000 0.00000000000000
15.0 0.279499090826812 -0.572108303866826 0.694356301666775 0.33532323532382 0.694356301666812 0.335323235323752 0.274288852890252 -0.574624465369639
! Port Impedance 50.00000000000000 0.00000000000000 50.00000000000000 0.00000000000000
16.0 0.249252855871006 -0.565786993915824 0.720741179854531 0.313512745220467 0.720741179854556 0.313512745220403 0.243966841072141 -0.568086337987641
! Port Impedance 50.00000000000000 0.00000000000000 50.00000000000000 0.00000000000000
17.0 0.221958132692216 -0.558979574192418 0.743918924236609 0.291309208824316 0.743918924236624 0.291309208824259 0.21663650722841 -0.561063453986856
! Port Impedance 50.00000000000000 0.00000000000000 50.00000000000000 0.00000000000000
18.000000000000004 0.197261487532252 -0.55195780634831 0.764247572506896 0.268990950147167 0.764247572506902 0.268990950147119 0.191940977231965 -0.553830456542726
! Port Impedance 50.00000000000000 0.00000000000000 50.00000000000000 0.00000000000000
19.000000000000004 0.174843294962359 -0.544917499566883 0.782051343491397 0.246759872646499 0.782051343491398 0.246759872646458 0.169557494213072 -0.546585322124827
! Port Impedance 50.00000000000000 0.00000000000000 50.00000000000000 0.00000000000000
20.0 0.154418768833252 -0.537996985868122 0.797619596151266 0.224760015743 0.797619596151263 0.224760015742968 0.149198459362848 -0.539468008254963
! Port Impedance 50.00000000000000 0.00000000000000 50.00000000000000 0.00000000000000
21.0 0.135736674269303 -0.531291449026232 0.811208118165128 0.203091945900489 0.811208118165123 0.203091945900464 0.130610132121529 -0.532574916144849
! Port Impedance 50.00000000000000 0.00000000000000 50.00000000000000 0.00000000000000
22.000000000000004 0.118576831958052 -0.524863908672852 0.823041627677233 0.181823787579708 0.823041627677227 0.181823787579689 0.113570111378707 -0.525969977278763
! Port Impedance 50.00000000000000 0.00000000000000 50.00000000000000 0.00000000000000
23.0 0.102747099844192 -0.518753572240148 0.833316799922101 0.160999610062903 0.833316799922096 0.160999610062891 0.097884289213632 -0.51969308325066
! Port Impedance 50.00000000000000 0.00000000000000 50.00000000000000 0.00000000000000
24.0 0.088080238395631 -0.512982148966969 0.842205410686692 0.140645767126201 0.842205410686689 0.140645767126194 0.083383687110368 -0.513766458638626
! Port Impedance 50.00000000000000 0.00000000000000 50.00000000000000 0.00000000000000
25.0 0.074430887600238 -0.507558603013436 0.849857367400487 0.120775668852474 0.849857367400486 0.120775668852471 0.069921404962133 -0.508199458413655
! Port Impedance 50.00000000000000 0.00000000000000 50.00000000000000 0.00000000000000
26.000000000000004 0.061672773014426 -0.502482719638464 0.856403510004999 0.101393361274997 0.856403510004999 0.101393361274997 0.057369801268073 -0.502992167335089
! Port Impedance 50.00000000000000 0.00000000000000 50.00000000000000 0.00000000000000
27.000000000000004 0.049696191040717 -0.497747773080097 0.861958131208066 0.082496203842307 0.861958131208069 0.08249620384231 0.045617955171499 -0.498138092668726
! Port Impedance 50.00000000000000 0.00000000000000 50.00000000000000 0.00000000000000
28.0 0.038405784351276 -0.493342516680793 0.866621205172111 0.064076866275061 0.866621205172115 0.064076866275065 0.0345694213574 -0.493626172830665
! Port Impedance 50.00000000000000 0.00000000000000 50.00000000000000 0.00000000000000
29.0 0.02771859658532 -0.489252662661491 0.870480335575932 0.046124812999028 0.870480335575938 0.046124812999033 0.024140266834747 -0.489442270924973
! Port Impedance 50.00000000000000 0.00000000000000 50.00000000000000 0.00000000000000
30.000000000000004 0.017562384389566 -0.485461978085745 0.873612445099675 0.028627402284249 0.873612445099683 0.028627402284254 0.014257367467091 -0.485570280898752
! Port Impedance 50.00000000000000 0.00000000000000 50.00000000000000 0.00000000000000
31.0 0.007874160242141 -0.481953092430294 0.876085233032609 0.011570695949499 0.876085233032619 0.011570695949505 0.004856937442983 -0.481992942622522
! Port Impedance 50.00000000000000 0.00000000000000 50.00000000000000 0.00000000000000
32.0 -0.001401061404922 -0.478708088614927 0.877958428612511 -0.005059948183097 0.877958428612522 -0.005059948183091 -0.004116736035997 -0.478692438420023
! Port Impedance 50.00000000000000 0.00000000000000 50.00000000000000 0.00000000000000
33.0 -0.010311340989238 -0.475708931572332 0.879284866559474 -0.021279446754429 0.879284866559485 -0.021279446754424 -0.012712379420893 -0.4756508256333
! Port Impedance 50.00000000000000 0.00000000000000 50.00000000000000 0.00000000000000
34.0 -0.018898737868932 -0.472937775062357 0.88011140909303 -0.0371026833662 0.880111409093042 -0.037102683366195 -0.020972665222418 -0.472850346307669
! Port Impedance 50.00000000000000 0.00000000000000 50.00000000000000 0.00000000000000
35.0 -0.027200103103373 -0.470377177377072 0.880479736130243 -0.052544292326473 0.880479736130254 -0.052544292326469 -0.02893501194424 -0.470273644929072
! Port Impedance 50.00000000000000 0.00000000000000 50.00000000000000 0.00000000000000
36.00000000000001 -0.035247759921867 -0.468010249020747 0.88042702270507 -0.067618510457444 0.880427022705081 -0.067618510457442 -0.036632270658207 -0.467903917513406
! Port Impedance 50.00000000000000 0.00000000000000 50.00000000000000 0.00000000000000
37.00000000000001 -0.043070088298201 -0.465820749760587 0.87998652011674 -0.082339079495497 0.879986520116752 -0.082339079495495 -0.044093314793387 -0.465725009605917
! Port Impedance 50.00000000000000 0.00000000000000 50.00000000000000 0.00000000000000
38.0 -0.050692027746435 -0.463793148161757 0.879188055001071 -0.096719185916431 0.879188055001082 -0.09671918591643 -0.05134354738683 -0.463721476426423
! Port Impedance 50.00000000000000 0.00000000000000 50.00000000000000 0.00000000000000
39.0 -0.058135510405066 -0.461912653493029 0.878058458460126 -0.110771428261661 0.878058458460136 -0.11077142826166 -0.058405337976459 -0.461878615138746
! Port Impedance 50.00000000000000 0.00000000000000 50.00000000000000 0.00000000000000
40.0 -0.065419834686341 -0.46016522745439 0.876621935586255 -0.124507804488018 0.876621935586264 -0.124507804488018 -0.065298399509416 -0.460182476764953
! Port Impedance 50.00000000000000 0.00000000000000 50.00000000000000 0.00000000000000
41.0 -0.072561988221301 -0.458537581338583 0.874900384162489 -0.137939713712242 0.874900384162497 -0.137939713712243 -0.072040114078562 -0.458619863408442
! Port Impedance 50.00000000000000 0.00000000000000 50.00000000000000 0.00000000000000
42.0 -0.079576927507058 -0.457017162847477 0.872913669990233 -0.151077968119217 0.87291366999024 -0.151077968119217 -0.078645814963269 -0.457178315045808
! Port Impedance 50.00000000000000 0.00000000000000 50.00000000000000 0.00000000000000
43.0 -0.086477820535232 -0.455592135731212 0.870679865161664 -0.163932811861263 0.870679865161671 -0.163932811861264 -0.085129031312573 -0.455846089084611
! Port Impedance 50.00000000000000 0.00000000000000 50.00000000000000 0.00000000000000
44.00000000000001 -0.093276257724239 -0.454251354620266 0.868215454632849 -0.176513944577612 0.868215454632854 -0.176513944577613 -0.091501700843513 -0.454612135078935
! Port Impedance 50.00000000000000 0.00000000000000 50.00000000000000 0.00000000000000
45.0 -0.099982435669213 -0.452984336816072 0.865535515640082 -0.18883054777081 0.865535515640086 -0.188830547770811 -0.097774355110998 -0.453466066384377
! Port Impedance 50.00000000000000 0.00000000000000 50.00000000000000 0.00000000000000
46.0 -0.106605317540092 -0.451781232347424 0.862653873814888 -0.200891312737536 0.862653873814892 -0.200891312737537 -0.103956281215898 -0.4523981300715
! Port Impedance 50.00000000000000 0.00000000000000 50.00000000000000 0.00000000000000
47.0 -0.113152773381981 -0.450632793252675 0.85958323927317 -0.212704469100329 0.859583239273173 -0.212704469100329 -0.110055663236167 -0.451399176066259
! Port Impedance 50.00000000000000 0.00000000000000 50.00000000000000 0.00000000000000
48.0 -0.119631703085449 -0.449530342784799 0.856335325464615 -0.224277813251004 0.856335325464617 -0.224277813251005 -0.116079706174838 -0.450460626220477
! Port Impedance 50.00000000000000 0.00000000000000 50.00000000000000 0.00000000000000
49.0 -0.126048144384077 -0.448465745037596 0.852920953155472 -0.23561873621632 0.852920953155473 -0.23561873621632 -0.122034744804485 -0.449574443814892
! Port Impedance 50.00000000000000 0.00000000000000 50.00000000000000 0.00000000000000
50.0 -0.132407367890074 -0.447431375341461 0.849350141568966 -0.246734250607018 0.849350141568966 -0.246734250607018 -0.12792633943799 -0.448733103845925
! Port Impedance 50.00000000000000 0.00000000000000 50.00000000000000 0.00000000000000
51.0 -0.138713960885994 -0.44642009166445 0.845632188412805 -0.257631016424594 0.845632188412805 -0.257631016424593 -0.133759360359906 -0.447929564333662
! Port Impedance 50.00000000000000 0.00000000000000 50.00000000000000 0.00000000000000
52.00000000000001 -0.144971901342937 -0.445425207170087 0.841775740273773 -0.268315365584725 0.841775740273773 -0.268315365584724 -0.139538062402729 -0.447157238803412
! Port Impedance 50.00000000000000 0.00000000000000 50.00000000000000 0.00000000000000
53.00000000000001 -0.151184623425911 -0.444440464020661 0.837788854648005 -0.278793325079187 0.837788854648004 -0.278793325079186 -0.145266150940679 -0.446409970029986
! Port Impedance 50.00000000000000 0.00000000000000 50.00000000000000 0.00000000000000
54.0 -0.157355075569139 -0.443460008468619 0.83367905469625 -0.289070638744341 0.833679054696249 -0.289070638744341 -0.150946840394007 -0.44568200508719
! Port Impedance 50.00000000000000 0.00000000000000 50.00000000000000 0.00000000000000
55.0 -0.163485772053053 -0.442478367244917 0.829453377661052 -0.299152787637934 0.82945337766105 -0.299152787637933 -0.156582906184407 -0.444967971711065
! Port Impedance 50.00000000000000 0.00000000000000 50.00000000000000 0.00000000000000
56.0 -0.169578838886235 -0.441490425229088 0.825118417753111 -0.30904500905004 0.82511841775311 -0.309045009050039 -0.162176730952342 -0.444262855961001
! Port Impedance 50.00000000000000 0.00000000000000 50.00000000000000 0.00000000000000
57.0 -0.17563605468607 -0.440491404368802 0.820680364203552 -0.31875231419074 0.820680364203551 -0.318752314190739 -0.167730345736622 -0.443561981145809
! Port Impedance 50.00000000000000 0.00000000000000 50.00000000000000 0.00000000000000
58.0 -0.181658887158502 -0.439476843805206 0.816145035084461 -0.328279504608472 0.81614503508446 -0.32827950460847 -0.173245466722254 -0.442860987970145
! Port Impedance 50.00000000000000 0.00000000000000 50.00000000000000 0.00000000000000
59.00000000000001 -0.187648525697388 -0.438442581152888 0.811517907419342 -0.337631187400133 0.81151790741934 -0.337631187400132 -0.178723528081936 -0.442155815849277
! Port Impedance 50.00000000000000 0.00000000000000 50.00000000000000 0.00000000000000
60.00000000000001 -0.193605910555604 -0.437384734878916 0.806804144035944 -0.346811789278151 0.806804144035943 -0.346811789278149 -0.184165711367599 -0.44144268533572
! Port Impedance 50.00000000000000 0.00000000000000 50.00000000000000 0.00000000000000
61.0 -0.199531758981394 -0.436299687723313 0.802008617554628 -0.355825569561529 0.802008617554627 -0.355825569561527 -0.189572971849112 -0.440718081599134
! Port Impedance 50.00000000000000 0.00000000000000 50.00000000000000 0.00000000000000
62.0 -0.205426588663051 -0.435184071102783 0.79713593185432 -0.364676632158049 0.797135931854319 -0.364676632158047 -0.194946062146454 -0.439978738900437
! Port Impedance 50.00000000000000 0.00000000000000 50.00000000000000 0.00000000000000
63.0 -0.211290738781674 -0.434034750440272 0.792190441314244 -0.373368936603725 0.792190441314243 -0.373368936603724 -0.200285553457824 -0.439221626001751
! Port Impedance 50.00000000000000 0.00000000000000 50.00000000000000 0.00000000000000
64.0 -0.217124388934321 -0.432848811364399 0.787176268091621 -0.38190630822375 0.78717626809162 -0.381906308223749 -0.205591854648415 -0.438443932455422
! Port Impedance 50.00000000000000 0.00000000000000 50.00000000000000 0.00000000000000
65.0 -0.22292757615758 -0.43162354672497 0.782097317662841 -0.390292447476663 0.782097317662841 -0.390292447476662 -0.210865229431964 -0.43764305571741
! Port Impedance 50.00000000000000 0.00000000000000 50.00000000000000 0.00000000000000
66.0 -0.228700210253648 -0.430356444373172 0.776957292827178 -0.398530938540625 0.776957292827177 -0.398530938540623 -0.216105811848977 -0.436816589032921
! Port Impedance 50.00000000000000 0.00000000000000 50.00000000000000 0.00000000000000
67.00000000000001 -0.234442087596767 -0.429045175657766 0.771759706347588 -0.406625257197646 0.771759706347588 -0.406625257197645 -0.22131362022105 -0.435962310044803
! Port Impedance 50.00000000000000 0.00000000000000 50.00000000000000 0.00000000000000
68.0 -0.240152903576846 -0.427687584591364 0.766507892381741 -0.414578778068398 0.76650789238174 -0.414578778068397 -0.226488569739502 -0.435078170078081
! Port Impedance 50.00000000000000 0.00000000000000 50.00000000000000 0.00000000000000
69.0 -0.245832263818788 -0.42628167764365 0.761205016837869 -0.422394781247067 0.761205016837869 -0.422394781247067 -0.231630483828041 -0.434162284056831
! Port Impedance 50.00000000000000 0.00000000000000 50.00000000000000 0.00000000000000
70.0 -0.251479694300137 -0.424825614121216 0.755854086773848 -0.430076458382538 0.755854086773848 -0.430076458382538 -0.236739104403127 -0.433212921012427
! Port Impedance 50.00000000000000 0.00000000000000 50.00000000000000 0.00000000000000
71.00000000000001 -0.25709465047572 -0.423317697096311 0.750457958943793 -0.437626918249115 0.750457958943794 -0.437626918249115 -0.241814101141618 -0.432228495144865
! Port Impedance 50.00000000000000 0.00000000000000 50.00000000000000 0.00000000000000
72.00000000000001 -0.262676525505816 -0.421756364849428 0.745019347584131 -0.445049191847027 0.74501934758413 -0.445049191847027 -0.246855079853043 -0.431207557401541
! Port Impedance 50.00000000000000 0.00000000000000 50.00000000000000 0.00000000000000
73.00000000000001 -0.268224657673737 -0.420140182793085 0.739540831520301 -0.452346237070105 0.739540831520301 -0.452346237070105 -0.251861590043088 -0.430148787540317
! Port Impedance 50.00000000000000 0.00000000000000 50.00000000000000 0.00000000000000
74.0 -0.273738337069358 -0.418467835846472 0.734024860665816 -0.45952094297534 0.734024860665817 -0.45952094297534 -0.256833131745459 -0.429050986646085
! Port Impedance 50.00000000000000 0.00000000000000 50.00000000000000 0.00000000000000
75.0 -0.279216811606946 -0.416738121232836 0.728473761977069 -0.466576133686463 0.728473761977069 -0.466576133686463 -0.261769161691 -0.427913070072244
! Port Impedance 50.00000000000000 0.00000000000000 50.00000000000000 0.00000000000000
76.0 -0.284659292438366 -0.414949941673511 0.722889744920031 -0.473514571961294 0.722889744920031 -0.473514571961295 -0.266669098875652 -0.426734060780585
! Port Impedance 50.00000000000000 0.00000000000000 50.00000000000000 0.00000000000000
77.0 -0.290064958816447 -0.413102298954381 0.71727490649855 -0.480338962450352 0.717274906498549 -0.480338962450352 -0.271532329582438 -0.425513083054996
! Port Impedance 50.00000000000000 0.00000000000000 50.00000000000000 0.00000000000000
78.0 -0.295432962457591 -0.411194287842375 0.711631235888317 -0.487051954672097 0.711631235888317 -0.487051954672097 -0.276358211906967 -0.424249356566238
! Port Impedance 50.00000000000000 0.00000000000000 50.00000000000000 0.00000000000000
79.0 -0.300762431447774 -0.4092250903312 0.705960618715613 -0.49365614572823 0.705960618715613 -0.493656145728231 -0.281146079830915 -0.422942190766654
! Port Impedance 50.00000000000000 0.00000000000000 50.00000000000000 0.00000000000000
80.0 -0.306052473731663 -0.40719397019704 0.70026484101551 -0.500154082780611 0.70026484101551 -0.500154082780611 -0.285895246883558 -0.421590979595268
! Port Impedance 50.00000000000000 0.00000000000000 50.00000000000000 0.00000000000000
81.0 -0.311302180220661 -0.405100267846391 0.694545592900389 -0.506548265309658 0.694545592900389 -0.506548265309659 -0.290605009427407 -0.420195196475126
! Port Impedance 50.00000000000000 0.00000000000000 50.00000000000000 0.00000000000000
82.0 -0.316510627552206 -0.402943395439441 0.688804471966105 -0.512841147172547 0.688804471966105 -0.512841147172547 -0.295274649600611 -0.418754389586057
