!Created with skrf (http://scikit-rf.org).
# MHz S RI R 50.0 
!freq ReS11 ImS11 ReS21 ImS21 ReS12 ImS12 ReS22 ImS22
1.0 0.999731746777023 -0.022335978104733 0.000137944005767 0.006125290612735 0.000137944005765 0.006125290612734 0.999723715957935 -0.022692576869802
! Port Impedance 50.00000000000000 0.00000000000000 50.00000000000000 0.00000000000000
2.0 0.99892749660041 -0.044652214436015 0.000551363280761 0.012236890724291 0.00055136328076 0.012236890724291 0.998895393078595 -0.045364607362139
! Port Impedance 50.00000000000000 0.00000000000000 50.00000000000000 0.00000000000000
3.0 0.997588739353829 -0.066929197448664 0.001239022557311 0.018321170487462 0.001239022557311 0.018321170487462 0.99751661470594 -0.06799560517078
! Port Impedance 50.00000000000000 0.00000000000000 50.00000000000000 0.00000000000000
4.0 0.995717969485926 -0.089147443959647 0.002198871741514 0.02436461789447 0.002198871741513 0.024364617894471 0.995590010544132 -0.090565228822859
! Port Impedance 50.00000000000000 0.00000000000000 50.00000000000000 0.00000000000000
5.0 0.993318656697442 -0.111287675260055 0.003428058100246 0.030353897525357 0.003428058100246 0.030353897525357 0.993119242759177 -0.113053343195127
! Port Impedance 50.00000000000000 0.00000000000000 50.00000000000000 0.00000000000000
6.0 0.990395230494612 -0.13333087190633 0.004922943603143 0.036275907109354 0.004922943603143 0.036275907109355 0.990108986724992 -0.135440086528006
! Port Impedance 50.00000000000000 0.00000000000000 50.00000000000000 0.00000000000000
7.0 0.986953057545555 -0.155258333312692 0.00667912682718 0.042117832205692 0.00667912682718 0.042117832205692 0.986564906639861 -0.157705934978054
! Port Impedance 50.00000000000000 0.00000000000000 50.00000000000000 0.00000000000000
8.0 0.982998414226946 -0.177051735866247 0.008691469241667 0.047867198564508 0.008691469241667 0.047867198564508 0.982493626235698 -0.179831764607018
! Port Impedance 50.00000000000000 0.00000000000000 50.00000000000000 0.00000000000000
9.000000000000002 0.978538454798555 -0.1986931884858 0.010954125603546 0.053511921769219 0.010954125603546 0.053511921769219 0.977902694870307 -0.2017989104186
! Port Impedance 50.00000000000000 0.00000000000000 50.00000000000000 0.00000000000000
10.000000000000002 0.973581175543551 -0.220165285119204 0.01346057814981 0.059040353799965 0.01346057814981 0.059040353799965 0.97280054933594 -0.223589222059564
! Port Impedance 50.00000000000000 0.00000000000000 50.00000000000000 0.00000000000000
11.0 0.968135375226559 -0.241451153812622 0.016203674239298 0.064441326198263 0.016203674239298 0.064441326198264 0.967196471753841 -0.245185115837967
! Port Impedance 50.00000000000000 0.00000000000000 50.00000000000000 0.00000000000000
12.0 0.962210612245892 -0.262534502053472 0.019175667067568 0.069704189556468 0.019175667067568 0.069704189556468 0.961100543955117 -0.266569622755204
! Port Impedance 50.00000000000000 0.00000000000000 50.00000000000000 0.00000000000000
13.000000000000002 0.955817158878113 -0.283399658141916 0.022368259055953 0.074818849101429 0.022368259055953 0.074818849101429 0.954523598772653 -0.287726432296215
! Port Impedance 50.00000000000000 0.00000000000000 50.00000000000000 0.00000000000000
14.000000000000002 0.948965953029716 -0.304031608395382 0.025772647499293 0.079775796189147 0.025772647499293 0.079775796189147 0.947477168687032 -0.308639931771896
! Port Impedance 50.00000000000000 0.00000000000000 50.00000000000000 0.00000000000000
15.0 0.941668547921751 -0.324416030039053 0.029379572046299 0.084566135575376 0.029379572046299 0.084566135575377 0.939973432281256 -0.329295241058484
! Port Impedance 50.00000000000000 0.00000000000000 50.00000000000000 0.00000000000000
16.0 0.933937060138438 -0.344539319683349 0.033179363581931 0.089181608375324 0.033179363581931 0.089181608375324 0.932025158964636 -0.349678242629508
! Port Impedance 50.00000000000000 0.00000000000000 50.00000000000000 0.00000000000000
17.0 0.925784116470347 -0.364388617336522 0.03716199408241 0.093614610672994 0.03716199408241 0.093614610672994 0.92364565242574 -0.369775606826012
! Port Impedance 50.00000000000000 0.00000000000000 50.00000000000000 0.00000000000000
18.000000000000004 0.917222799976919 -0.38395182594596 0.041317127020259 0.097858207786659 0.041317127020259 0.097858207786659 0.914848693267989 -0.389574812359332
! Port Impedance 50.00000000000000 0.00000000000000 50.00000000000000 0.00000000000000
19.000000000000004 0.908266595682234 -0.403217626505384 0.045634167908658 0.10190614424064 0.045634167908658 0.101906144240641 0.905648481269779 -0.409064162087107
! Port Impedance 50.00000000000000 0.00000000000000 50.00000000000000 0.00000000000000
20.0 0.898929336302346 -0.422175488805847 0.050102314590992 0.105752849534637 0.050102314590992 0.105752849534637 0.896059577694416 -0.428232794146783
! Port Impedance 50.00000000000000 0.00000000000000 50.00000000000000 0.00000000000000
21.0 0.889225148383033 -0.440815677946158 0.054710606902211 0.109393439839532 0.054710606902211 0.109393439839532 0.88609684805406 -0.447070688571139
! Port Impedance 50.00000000000000 0.00000000000000 50.00000000000000 0.00000000000000
22.000000000000004 0.879168399203495 -0.459129256752593 0.059447975352997 0.112823715782778 0.059447975352997 0.112823715782778 0.875775405707109 -0.465568669546838
! Port Impedance 50.00000000000000 0.00000000000000 50.00000000000000 0.00000000000000
23.0 0.868773644775479 -0.477108084288015 0.064303288515046 0.11604015651656 0.064303288515046 0.11604015651656 0.865110556640371 -0.483718403509421
! Port Impedance 50.00000000000000 0.00000000000000 50.00000000000000 0.00000000000000
24.0 0.858055579238719 -0.494744810656964 0.069265398815544 0.119039910287964 0.069265398815544 0.119039910287964 0.85411774575681 -0.501512393296289
! Port Impedance 50.00000000000000 0.00000000000000 50.00000000000000 0.00000000000000
25.0 0.8470289859232 -0.512032868335385 0.074323186480387 0.121820781752053 0.074323186480387 0.121820781752053 0.842812504957139 -0.518943968602851
! Port Impedance 50.00000000000000 0.00000000000000 50.00000000000000 0.00000000000000
26.000000000000004 0.835708690317244 -0.528966460271727 0.079465601398404 0.124381216286147 0.079465601398404 0.124381216286147 0.831210403269754 -0.536007273006233
! Port Impedance 50.00000000000000 0.00000000000000 50.00000000000000 0.00000000000000
27.000000000000004 0.824109515148154 -0.54554054501997 0.084681702712099 0.126720281576725 0.084681702712099 0.126720281576725 0.81932699924895 -0.552697247835678
! Port Impedance 50.00000000000000 0.00000000000000 50.00000000000000 0.00000000000000
28.0 0.812246237749766 -0.561750819174983 0.089960695973762 0.128837646759322 0.089960695973762 0.128837646759323 0.807177795826783 -0.569009613179215
! Port Impedance 50.00000000000000 0.00000000000000 50.00000000000000 0.00000000000000
29.0 0.800133549859327 -0.577593697386624 0.095291967738698 0.130733559396835 0.095291967738698 0.130733559396835 0.794778197769637 -0.584940846322523
! Port Impedance 50.00000000000000 0.00000000000000 50.00000000000000 0.00000000000000
30.000000000000004 0.787786019954772 -0.593066290231307 0.100665117499316 0.132408820582918 0.100665117499316 0.132408820582918 0.782143471857143 -0.600488157918304
! Port Impedance 50.00000000000000 0.00000000000000 50.00000000000000 0.00000000000000
31.0 0.775218058213513 -0.608166380218823 0.10606998689458 0.133864758455073 0.106069986894581 0.133864758455073 0.769288709868939 -0.615649466183414
! Port Impedance 50.00000000000000 0.00000000000000 50.00000000000000 0.00000000000000
32.0 0.762443884145155 -0.622892396208118 0.111496686158428 0.135103200396748 0.111496686158428 0.135103200396748 0.756228794434167 -0.630423369416527
! Port Impedance 50.00000000000000 0.00000000000000 50.00000000000000 0.00000000000000
33.0 0.749477496923756 -0.637243386499091 0.116935617798019 0.136126444199782 0.116935617798019 0.136126444199782 0.742978367769937 -0.644809117121852
! Port Impedance 50.00000000000000 0.00000000000000 50.00000000000000 0.00000000000000
34.0 0.73633264841939 -0.651218990859322 0.122377497517924 0.136937228447993 0.122377497517925 0.136937228447993 0.72955180330838 -0.658806580014531
! Port Impedance 50.00000000000000 0.00000000000000 50.00000000000000 0.00000000000000
35.0 0.723022818926737 -0.664819411710432 0.127813372427788 0.137538702372995 0.127813372427788 0.137538702372995 0.715963180187377 -0.672416219171366
! Port Impedance 50.00000000000000 0.00000000000000 50.00000000000000 0.00000000000000
36.00000000000001 0.709561195454373 -0.678045384812777 0.133234636599457 0.137934395404061 0.133234636599457 0.137934395404061 0.702226260559721 -0.685639054576549
! Port Impedance 50.00000000000000 0.00000000000000 50.00000000000000 0.00000000000000
37.00000000000001 0.69596065273514 -0.690898149420941 0.138633044035841 0.138128186660335 0.138633044035841 0.138128186660335 0.688354469651502 -0.698476633297202
! Port Impedance 50.00000000000000 0.00000000000000 50.00000000000000 0.00000000000000
38.0 0.682233736579556 -0.703379418451448 0.144000719165719 0.138124274547597 0.144000719165719 0.138124274547597 0.67436087849108 -0.710930997506507
! Port Impedance 50.00000000000000 0.00000000000000 50.00000000000000 0.00000000000000
39.0 0.668392649730695 -0.715491348573105 0.149330164953885 0.137927146677914 0.149330164953885 0.137927146677914 0.660258189207503 -0.72300465255578
! Port Impedance 50.00000000000000 0.00000000000000 50.00000000000000 0.00000000000000
40.0 0.654449239998122 -0.727236510527029 0.154614268752622 0.137541550263735 0.154614268752622 0.137541550263735 0.646058722790435 -0.734700535278782
! Port Impedance 50.00000000000000 0.00000000000000 50.00000000000000 0.00000000000000
41.0 0.640414990590622 -0.738617859797633 0.159846306018778 0.136972463140503 0.159846306018778 0.136972463140503 0.631774409191576 -0.746021982693966
! Port Impedance 50.00000000000000 0.00000000000000 50.00000000000000 0.00000000000000
42.0 0.626301012527016 -0.749638707776316 0.165019942029635 0.136225065549845 0.165019942029635 0.136225065549845 0.617416779640388 -0.756972701252593
! Port Impedance 50.00000000000000 0.00000000000000 50.00000000000000 0.00000000000000
43.0 0.612118039001537 -0.760302693540609 0.170129231735309 0.13530471279851 0.170129231735309 0.13530471279851 0.60299696104105 -0.767556736763283
! Port Impedance 50.00000000000000 0.00000000000000 50.00000000000000 0.00000000000000
44.00000000000001 0.597876421576658 -0.770613756355733 0.175168617887538 0.13421690889168 0.175168617887538 0.134216908891679 0.588525672318056 -0.777778445103509
! Port Impedance 50.00000000000000 0.00000000000000 50.00000000000000 0.00000000000000
45.0 0.58358612807457 -0.780576108989283 0.180132927590176 0.13296728122206 0.180132927590176 0.13296728122206 0.574013222550092 -0.787642463830986
! Port Impedance 50.00000000000000 0.00000000000000 50.00000000000000 0.00000000000000
46.0 0.569256742037248 -0.790194211917954 0.185017367403715 0.13156155638424 0.185017367403715 0.13156155638424 0.559469510807717 -0.797153684736223
! Port Impedance 50.00000000000000 0.00000000000000 50.00000000000000 0.00000000000000
47.0 0.554897463627106 -0.799472748486519 0.189817517156752 0.130005537163447 0.189817517156752 0.130005537163447 0.544904027477069 -0.80631722746123
! Port Impedance 50.00000000000000 0.00000000000000 50.00000000000000 0.00000000000000
48.0 0.540517111840669 -0.808416601071785 0.194529322589843 0.128305080740946 0.194529322589843 0.128305080740946 0.530325857002917 -0.815138414186121
! Port Impedance 50.00000000000000 0.00000000000000 50.00000000000000 0.00000000000000
49.0 0.526124127911656 -0.817030828288393 0.199149086970872 0.126466078141153 0.199149086970872 0.126466078141153 0.515743681881765 -0.823622745450101
! Port Impedance 50.00000000000000 0.00000000000000 50.00000000000000 0.00000000000000
50.0 0.511726579783039 -0.825320643263894 0.203673461808777 0.124494434936172 0.203673461808777 0.124494434936172 0.501165787785961 -0.83177587712758
! Port Impedance 50.00000000000000 0.00000000000000 50.00000000000000 0.00000000000000
51.0 0.497332167532226 -0.833291393000042 0.208099436788988 0.122396053212529 0.208099436788987 0.122396053212528 0.486600069693428 -0.839603598577415
! Port Impedance 50.00000000000000 0.00000000000000 50.00000000000000 0.00000000000000
52.00000000000001 0.482948229638411 -0.84094853882813 0.21242432904783 0.120176814795576 0.21242432904783 0.120176814795576 0.472054038904051 -0.847111811972773
! Port Impedance 50.00000000000000 0.00000000000000 50.00000000000000 0.00000000000000
53.00000000000001 0.468581749986534 -0.848297637957956 0.216645771896878 0.117842565718703 0.216645771896878 0.117842565718703 0.457534830829529 -0.854306512810293
! Port Impedance 50.00000000000000 0.00000000000000 50.00000000000000 0.00000000000000
54.0 0.454239365508013 -0.855344326112735 0.220761703101589 0.115399101917117 0.220761703101589 0.115399101917117 0.443049213449742 -0.861193771589447
! Port Impedance 50.00000000000000 0.00000000000000 50.00000000000000 0.00000000000000
55.0 0.439927374364331 -0.862094301235875 0.224770352811749 0.112852156119568 0.224770352811749 0.112852156119568 0.428603596335022 -0.867779716646128
! Port Impedance 50.00000000000000 0.00000000000000 50.00000000000000 0.00000000000000
56.0 0.425651744585628 -0.868553308249924 0.228670231234326 0.110207385905927 0.228670231234326 0.110207385905926 0.414204040140299 -0.874070518118583
! Port Impedance 50.00000000000000 0.00000000000000 50.00000000000000 0.00000000000000
57.0 0.411418123082554 -0.874727124843307 0.232460116132405 0.107470362893857 0.232460116132405 0.107470362893857 0.399856266483652 -0.88007237301872
! Port Impedance 50.00000000000000 0.00000000000000 50.00000000000000 0.00000000000000
58.0 0.397231844955731 -0.880621548256392 0.23613904022699 0.10464656301403 0.23613904022699 0.10464656301403 0.385565668128379 -0.885791491377546
! Port Impedance 50.00000000000000 0.00000000000000 50.00000000000000 0.00000000000000
59.00000000000001 0.383097943033181 -0.886242383035167 0.239706278571686 0.101741357830227 0.239706278571686 0.101741357830227 0.371337319394147 -0.891234083429971
! Port Impedance 50.00000000000000 0.00000000000000 50.00000000000000 0.00000000000000
60.00000000000001 0.369021157571958 -0.891595429718062 0.243161335963696 0.098760006858309 0.243161335963696 0.098760006858309 0.357175986729153 -0.896406347801376
! Port Impedance 50.00000000000000 0.00000000000000 50.00000000000000 0.00000000000000
61.0 0.355005946065901 -0.896686474419452 0.246503934448197 0.095707650836223 0.246503934448197 0.095707650836223 0.343086139381315 -0.901314460656129
! Port Impedance 50.00000000000000 0.00000000000000 50.00000000000000 0.00000000000000
62.0 0.341056493106966 -0.901521279271766 0.249734000967015 0.092589305896071 0.249734000967015 0.092589305896071 0.329071960112476 -0.905964565766615
! Port Impedance 50.00000000000000 0.00000000000000 50.00000000000000 0.00000000000000
63.0 0.327176720252801 -0.906105573687019 0.252851655196709 0.089409858588517 0.252851655196709 0.089409858588517 0.315137355905218 -0.910362765460212
! Port Impedance 50.00000000000000 0.00000000000000 50.00000000000000 0.00000000000000
64.0 0.313370295858245 -0.910445046398069 0.255857197615599 0.08617406170963 0.255857197615599 0.08617406170963 0.301285968617316 -0.914515112400981
! Port Impedance 50.00000000000000 0.00000000000000 50.00000000000000 0.00000000000000
65.0 0.29964064483319 -0.914545338239456 0.258751097834083 0.082886530880376 0.258751097834083 0.082886530880376 0.287521185543879 -0.918427602162611
! Port Impedance 50.00000000000000 0.00000000000000 50.00000000000000 0.00000000000000
66.0 0.285990958293654 -0.9184120356279 0.261533983217662 0.079551741829515 0.261533983217662 0.079551741829515 0.273846149852088 -0.922106166549218
! Port Impedance 50.00000000000000 0.00000000000000 50.00000000000000 0.00000000000000
67.00000000000001 0.272424203077085 -0.922050664702787 0.264206627827531 0.076174028331469 0.264206627827531 0.076174028331469 0.260263770857854 -0.925556667621054
! Port Impedance 50.00000000000000 0.00000000000000 50.00000000000000 0.00000000000000
68.0 0.258943131096822 -0.925466686087622 0.266769941699358 0.072757580751785 0.266769941699358 0.072757580751785 0.246776734117931 -0.928784892382824
! Port Impedance 50.00000000000000 0.00000000000000 50.00000000000000 0.00000000000000
69.0 0.245550288514193 -0.928665490234242 0.269224960476951 0.069306445154128 0.269224960476951 0.069306445154128 0.233387511314841 -0.931796548093216
! Port Impedance 50.00000000000000 0.00000000000000 50.00000000000000 0.00000000000000
70.0 0.232248024710056 -0.93165239331249 0.271572835413915 0.06582452292418 0.271572835413915 0.06582452292418 0.220098369915564 -0.934597258155367
! Port Impedance 50.00000000000000 0.00000000000000 50.00000000000000 0.00000000000000
71.00000000000001 0.219038501040646 -0.934432633609307 0.273814823753125 0.062315570867449 0.273814823753125 0.062315570867449 0.2069113825882 -0.937192558549155
! Port Impedance 50.00000000000000 0.00000000000000 50.00000000000000 0.00000000000000
72.00000000000001 0.205923699365357 -0.937011368402335 0.275952279490855 0.058783201739704 0.275952279490855 0.058783201739704 0.193828436363766 -0.939587894767668
! Port Impedance 50.00000000000000 0.00000000000000 50.00000000000000 0.00000000000000
73.00000000000001 0.1929054303366 -0.939393671274458 0.277986644529685 0.055230885170556 0.277986644529685 0.055230885170556 0.180851241533049 -0.941788619221556
! Port Impedance 50.00000000000000 0.00000000000000 50.00000000000000 0.00000000000000
74.0 0.1799853414442 -0.941584529837209 0.279919440221921 0.051661948942571 0.279919440221921 0.051661948942571 0.167981340270856 -0.943799989076568
! Port Impedance 50.00000000000000 0.00000000000000 50.00000000000000 0.00000000000000
75.0 0.167164924808821 -0.94358884383225 0.281752259303058 0.048079580590195 0.281752259303058 0.048079580590195 0.155220114982225 -0.945627164491117
! Port Impedance 50.00000000000000 0.00000000000000 50.00000000000000 0.00000000000000
76.0 0.154445524720773 -0.945411423581744 0.283486758212922 0.044486829284696 0.283486758212922 0.044486829284696 0.142568796367131 -0.94727520722231
! Port Impedance 50.00000000000000 0.00000000000000 50.00000000000000 0.00000000000000
77.0 0.141828344922179 -0.947056988759823 0.285124649800423 0.040886607973232 0.285124649800423 0.040886607973232 0.130028471201988 -0.948749079570514
! Port Impedance 50.00000000000000 0.00000000000000 50.00000000000000 0.00000000000000
78.0 0.129314455631756 -0.948530167458909 0.286667696406357 0.037281695742023 0.286667696406357 0.037281695742023 0.117600089837787 -0.95005364363413
! Port Impedance 50.00000000000000 0.00000000000000 50.00000000000000 0.00000000000000
79.0 0.116904800259889 -0.949835495534522 0.288117703311987 0.033674740366727 0.288117703311987 0.033674740366727 0.105284473416578 -0.951193660849723
! Port Impedance 50.00000000000000 0.00000000000000 50.00000000000000 0.00000000000000
80.0 0.104600202199449 -0.950977416143936 0.289476512584857 0.0300682610873 0.289476512584857 0.0300682610873 0.093082320805422 -0.952173791778542
! Port Impedance 50.00000000000000 0.00000000000000 50.00000000000000 0.00000000000000
81.0 0.092401370522845 -0.95196027964392 0.290745997192658 0.026464651388594 0.290745997192658 0.026464651388594 0.080994215261261 -0.952998596157984
! Port Impedance 50.00000000000000 0.00000000000000 50.00000000000000 0.00000000000000
82.0 0.080308906572023 -0.952788343510238 0.291928055579077 0.022866182092514 0.291928055579077 0.022866182092514 0.069020630814193 -0.95367253312443
! Port Impedance 50.00000000000000 0.00000000000000 50.00000000000000 0.00000000000000
83.0 0.068323309435086 -0.953465772580766 0.293024606484986 0.019275004407475 0.293024606484986 0.019275004407476 0.05716193839134 -0.954199961659155
