!Created with skrf (http://scikit-rf.org).
# MHz S RI R 50.0 
!freq ReS11 ImS11 ReS21 ImS21 ReS12 ImS12 ReS22 ImS22
1.0 0.999781767812499 -0.020385124225551 9.5421463501e-05 0.004566601227855 9.5421463504e-05 0.004566601227854 0.999760638171451 -0.021396334797905
! Port Impedance 50.00000000000000 0.00000000000000 50.00000000000000 0.00000000000000
2.0 0.999127395266022 -0.040756019183023 0.000381443804652 0.0091244561688 0.000381443804653 0.009124456168799 0.999042923151664 -0.042776583711866
! Port Impedance 50.00000000000000 0.00000000000000 50.00000000000000 0.00000000000000
3.0 0.998037822278497 -0.061098686794551 0.000857343113011 0.013664850546167 0.000857343113012 0.013664850546166 0.997847964388108 -0.064124694041362
! Port Impedance 50.00000000000000 0.00000000000000 50.00000000000000 0.00000000000000
4.0 0.996514626241339 -0.081399079966805 0.001521916914364 0.018179133337073 0.001521916914365 0.018179133337072 0.996177605679431 -0.085424706150571
! Port Impedance 50.00000000000000 0.00000000000000 50.00000000000000 0.00000000000000
5.0 0.994560003551547 -0.101643271428542 0.002373490205302 0.022658748008127 0.002373490205302 0.022658748008127 0.994034417592108 -0.106660789098111
! Port Impedance 50.00000000000000 0.00000000000000 50.00000000000000 0.00000000000000
6.0 0.992176762636899 -0.121817479226064 0.003409923874091 0.027095263032073 0.003409923874091 0.027095263032073 0.991421686726453 -0.127817283049601
! Port Impedance 50.00000000000000 0.00000000000000 50.00000000000000 0.00000000000000
7.0 0.989368312885943 -0.141908099654718 0.004628625385165 0.031480401562808 0.004628625385166 0.031480401562807 0.988343402104344 -0.148878740231676
! Port Impedance 50.00000000000000 0.00000000000000 50.00000000000000 0.00000000000000
8.0 0.98613865111594 -0.161901740211258 0.006026561644903 0.035806070081396 0.006026561644903 0.035806070081395 0.98480423875997 -0.169829964578488
! Port Impedance 50.00000000000000 0.00000000000000 50.00000000000000 0.00000000000000
9.000000000000002 0.982492345822741 -0.181785251459385 0.007600273935767 0.04006438582014 0.007600273935767 0.040064385820139 0.980809538662323 -0.190656049892604
! Port Impedance 50.00000000000000 0.00000000000000 50.00000000000000 0.00000000000000
10.000000000000002 0.978434519337412 -0.201545757628973 0.009345894795851 0.044247702813829 0.009345894795851 0.044247702813829 0.976365289118626 -0.211342416322602
! Port Impedance 50.00000000000000 0.00000000000000 50.00000000000000 0.00000000000000
11.0 0.973970828022333 -0.221170685757952 0.011259166704022 0.048348636425775 0.011259166704022 0.048348636425774 0.971478098826002 -0.23187484497034
! Port Impedance 50.00000000000000 0.00000000000000 50.00000000000000 0.00000000000000
12.0 0.969107440664308 -0.240647793164494 0.013335462414501 0.052360086205228 0.013335462414502 0.052360086205227 0.966155171754714 -0.252239510457942
! Port Impedance 50.00000000000000 0.00000000000000 50.00000000000000 0.00000000000000
13.000000000000002 0.963851015225623 -0.259965193122455 0.015569806775134 0.056275256956473 0.015569806775134 0.056275256956473 0.960404279059465 -0.272423011304036
! Port Impedance 50.00000000000000 0.00000000000000 50.00000000000000 0.00000000000000
14.000000000000002 0.958208674146037 -0.279111378551386 0.017956899852439 0.060087677919603 0.017956899852439 0.060087677919602 0.954233729226095 -0.292412397979716
! Port Impedance 50.00000000000000 0.00000000000000 50.00000000000000 0.00000000000000
15.0 0.952187978222354 -0.298075244149372 0.020491141197659 0.063791219973095 0.02049114119766 0.063791219973095 0.947652336669582 -0.312195198536708
! Port Impedance 50.00000000000000 0.00000000000000 50.00000000000000 0.00000000000000
16.0 0.945796899654537 -0.316846105478603 0.023166655028055 0.067380110815977 0.023166655028055 0.067380110815977 0.940669388992011 -0.331759441757394
! Port Impedance 50.00000000000000 0.00000000000000 50.00000000000000 0.00000000000000
17.0 0.939043793811894 -0.33541371714763 0.02597731617688 0.070848948026051 0.02597731617688 0.070848948026051 0.933294613246934 -0.351093677434891
! Port Impedance 50.00000000000000 0.00000000000000 50.00000000000000 0.00000000000000
18.000000000000004 0.931937370487037 -0.353768287999353 0.028916776644841 0.074192710097713 0.028916776644841 0.074192710097712 0.925538141012797 -0.370186994897742
! Port Impedance 50.00000000000000 0.00000000000000 50.00000000000000 0.00000000000000
19.000000000000004 0.924486664507348 -0.371900494439004 0.031978492442642 0.07740676524222 0.031978492442642 0.077406765242219 0.917410473303533 -0.389029037570777
! Port Impedance 50.00000000000000 0.00000000000000 50.00000000000000 0.00000000000000
20.0 0.916701005969262 -0.389801491542466 0.035155750707051 0.08048687818361 0.035155750707051 0.08048687818361 0.908922444635741 -0.407610016036841
! Port Impedance 50.00000000000000 0.00000000000000 50.00000000000000 0.00000000000000
21.0 0.908589990271519 -0.407462922010811 0.038441696792969 0.083429214828318 0.038441696792969 0.083429214828318 0.900085187082832 -0.425920717947011
! Port Impedance 50.00000000000000 0.00000000000000 50.00000000000000 0.00000000000000
22.000000000000004 0.900163448114493 -0.424876922999419 0.041829361216313 0.086230344909185 0.041829361216313 0.086230344909185 0.890910094287599 -0.443952515469445
! Port Impedance 50.00000000000000 0.00000000000000 50.00000000000000 0.00000000000000
23.0 0.891431415630646 -0.442036130867806 0.045311686275731 0.088887242651274 0.045311686275731 0.088887242651273 0.881408785677279 -0.461697370216276
! Port Impedance 50.00000000000000 0.00000000000000 50.00000000000000 0.00000000000000
24.0 0.882404104801951 -0.458933683908971 0.048881552199577 0.091397285531246 0.048881552199577 0.091397285531246 0.871593071069728 -0.479147835726713
! Port Impedance 50.00000000000000 0.00000000000000 50.00000000000000 0.00000000000000
25.0 0.873091874310638 -0.475563223129025 0.052531802675045 0.093758251213951 0.052531802675045 0.093758251213951 0.861474915848677 -0.496297057595899
! Port Impedance 50.00000000000000 0.00000000000000 50.00000000000000 0.00000000000000
26.000000000000004 0.863505200959277 -0.491918891158635 0.056255269627952 0.095968312760482 0.056255269627952 0.095968312760482 0.851066406873209 -0.513138771351918
! Port Impedance 50.00000000000000 0.00000000000000 50.00000000000000 0.00000000000000
27.000000000000004 0.853654651785105 -0.507995329387158 0.060044797133974 0.098026032211123 0.060044797133974 0.098026032211123 0.840379719272788 -0.529667298194634
! Port Impedance 50.00000000000000 0.00000000000000 50.00000000000000 0.00000000000000
28.0 0.843550856981879 -0.523787673418215 0.063893264354931 0.099930352654214 0.063893264354931 0.099930352654214 0.829427084264756 -0.545877538719693
! Port Impedance 50.00000000000000 0.00000000000000 50.00000000000000 0.00000000000000
29.0 0.833204483730617 -0.539291546952063 0.067793607406843 0.101680588898022 0.067793607406843 0.101680588898022 0.818220758116347 -0.561764964758866
! Port Impedance 50.00000000000000 0.00000000000000 50.00000000000000 0.00000000000000
30.000000000000004 0.822626211028391 -0.554503054205229 0.07173884007975 0.103276416867299 0.07173884007975 0.103276416867299 0.80677299235816 -0.577325609474112
! Port Impedance 50.00000000000000 0.00000000000000 50.00000000000000 0.00000000000000
31.0 0.811826705592176 -0.569418770981719 0.075722073342501 0.104717861849295 0.075722073342501 0.104717861849295 0.795096005340966 -0.592556055847204
! Port Impedance 50.00000000000000 0.00000000000000 50.00000000000000 0.00000000000000
32.0 0.800816598902642 -0.584035734512558 0.079736533578753 0.106005285715695 0.079736533578753 0.106005285715695 0.783201955212694 -0.60745342370969
! Port Impedance 50.00000000000000 0.00000000000000 50.00000000000000 0.00000000000000
33.0 0.789606465440948 -0.598351432181798 0.083775579513141 0.107139373247375 0.083775579513141 0.107139373247375 0.771102914377837 -0.622015355459326
! Port Impedance 50.00000000000000 0.00000000000000 50.00000000000000 0.00000000000000
34.0 0.778206802160088 -0.612363789257195 0.087832717798807 0.108121117687974 0.087832717798807 0.108121117687974 0.758810845487278 -0.636240000609063
! Port Impedance 50.00000000000000 0.00000000000000 50.00000000000000 0.00000000000000
35.0 0.766628009221321 -0.626071155742878 0.091901617249193 0.108951805650374 0.091901617249193 0.108951805650374 0.746337578992927 -0.650125999313373
! Port Impedance 50.00000000000000 0.00000000000000 50.00000000000000 0.00000000000000
36.00000000000001 0.754880372015655 -0.639472292469436 0.095976121708023 0.109633001497159 0.095976121708023 0.109633001497159 0.733694792288603 -0.66367246501409
! Port Impedance 50.00000000000000 0.00000000000000 50.00000000000000 0.00000000000000
37.00000000000001 0.742974044480553 -0.652566356534111 0.100050261561695 0.110166531312257 0.100050261561695 0.110166531312257 0.720893990446443 -0.676878966344417
! Port Impedance 50.00000000000000 0.00000000000000 50.00000000000000 0.00000000000000
38.0 0.730919033712743 -0.665352886200253 0.104118263907856 0.110554466576288 0.104118263907856 0.110554466576288 0.707946488546779 -0.689745508425149
! Port Impedance 50.00000000000000 0.00000000000000 50.00000000000000 0.00000000000000
39.0 0.718725185869525 -0.677831785361058 0.108174561402578 0.110799107652812 0.108174561402578 0.110799107652812 0.694863395589011 -0.702272513681858
! Port Impedance 50.00000000000000 0.00000000000000 50.00000000000000 0.00000000000000
40.0 0.706402173343236 -0.690003307667843 0.112213799816433 0.110902967186754 0.112213799816433 0.110902967186754 0.681655599961487 -0.714460802305739
! Port Impedance 50.00000000000000 0.00000000000000 50.00000000000000 0.00000000000000
41.0 0.693959483186468 -0.70186804041796 0.116230844336691 0.110868753509953 0.116230844336691 0.110868753509953 0.668333756439871 -0.726311572474234
! Port Impedance 50.00000000000000 0.00000000000000 50.00000000000000 0.00000000000000
42.0 0.681406406759467 -0.713426888291894 0.120220784658985 0.110699354142101 0.120220784658985 0.110699354142101 0.654908274675873 -0.737826380440553
! Port Impedance 50.00000000000000 0.00000000000000 50.00000000000000 0.00000000000000
43.0 0.668752030565588 -0.724681057023251 0.12417893891701 0.110397819468423 0.12417893891701 0.110397819468423 0.641389309131576 -0.749007120593823
! Port Impedance 50.00000000000000 0.00000000000000 50.00000000000000 0.00000000000000
44.00000000000001 0.656005228236001 -0.735632037079386 0.128100856503211 0.109967346668375 0.128100856503211 0.109967346668375 0.627786750408899 -0.759856005584101
! Port Impedance 50.00000000000000 0.00000000000000 50.00000000000000 0.00000000000000
45.0 0.643174653620781 -0.746281587424248 0.131982319837024 0.109411263962562 0.131982319837024 0.109411263962562 0.614110217918896 -0.770375546598739
! Port Impedance 50.00000000000000 0.00000000000000 50.00000000000000 0.00000000000000
46.0 0.630268734940233 -0.756631719428964 0.135819345140028 0.108733015237951 0.135819345140028 0.108733015237951 0.600369053831658 -0.780568533868937
! Port Impedance 50.00000000000000 0.00000000000000 50.00000000000000 0.00000000000000
47.0 0.61729566994763 -0.766684680989443 0.139608182279456 0.107936145104487 0.139608182279456 0.107936145104487 0.586572318244452 -0.790438017477632
! Port Impedance 50.00000000000000 0.00000000000000 50.00000000000000 0.00000000000000
48.0 0.604263422052478 -0.776442940904403 0.143345313742921 0.107024284429381 0.14334531374292 0.107024284429381 0.572728785503411 -0.799987288532341
! Port Impedance 50.00000000000000 0.00000000000000 50.00000000000000 0.00000000000000
49.0 0.591179717351993 -0.785909173561216 0.147027452807973 0.106001136388706 0.147027452807974 0.106001136388706 0.558846941612373 -0.809219860759235
! Port Impedance 50.00000000000000 0.00000000000000 50.00000000000000 0.00000000000000
50.0 0.578052042517537 -0.795086243971313 0.150651540970314 0.104870463069589 0.150651540970314 0.104870463069589 0.544934982661587 -0.818139452567602
! Port Impedance 50.00000000000000 0.00000000000000 50.00000000000000 0.00000000000000
51.0 0.564887643482312 -0.803977193191414 0.154214744694127 0.103636072650185 0.154214744694127 0.103636072650185 0.531000814208569 -0.826749969627013
! Port Impedance 50.00000000000000 0.00000000000000 50.00000000000000 0.00000000000000
52.00000000000001 0.551693524876617 -0.812585224161561 0.157714451547229 0.102301807178911 0.157714451547229 0.10230180717891 0.517052051543586 -0.835055487993027
! Port Impedance 50.00000000000000 0.00000000000000 50.00000000000000 0.00000000000000
53.00000000000001 0.538476450157384 -0.820913687985994 0.161148265782487 0.100871530968974 0.161148265782487 0.100871530968973 0.503096020772922 -0.843060237811062
! Port Impedance 50.00000000000000 0.00000000000000 50.00000000000000 0.00000000000000
54.0 0.525242942379454 -0.828966070678238 0.164514003425389 0.099349119619231 0.164514003425389 0.099349119619231 0.489139760654158 -0.850768587622306
! Port Impedance 50.00000000000000 0.00000000000000 50.00000000000000 0.00000000000000
55.0 0.511999285557082 -0.836745980387327 0.167809686925763 0.097738449667729 0.167809686925763 0.097738449667729 0.475190025119171 -0.858185029290085
! Port Impedance 50.00000000000000 0.00000000000000 50.00000000000000 0.00000000000000
56.0 0.498751526565542 -0.844257135118092 0.171033539429474 0.096043388880002 0.171033539429474 0.096043388880002 0.461253286422364 -0.86531416356012
! Port Impedance 50.00000000000000 0.00000000000000 50.00000000000000 0.00000000000000
57.0 0.485505477534172 -0.851503350954596 0.174183978723583 0.094267787170311 0.174183978723583 0.094267787170311 0.447335738853678 -0.872160686263444
! Port Impedance 50.00000000000000 0.00000000000000 50.00000000000000 0.00000000000000
58.0 0.472266718683982 -0.858488530792447 0.177259610905891 0.092415468150464 0.177259610905891 0.092415468150464 0.433443302958237 -0.878729375166556
! Port Impedance 50.00000000000000 0.00000000000000 50.00000000000000 0.00000000000000
59.00000000000001 0.459040601564816 -0.865216653582426 0.180259223827134 0.09049022129773 0.180259223827134 0.09049022129773 0.419581630206945 -0.885025077469491
! Port Impedance 50.00000000000000 0.00000000000000 50.00000000000000 0.00000000000000
60.00000000000001 0.445832252649004 -0.871691764085196 0.183181780351329 0.088495794730526 0.183181780351328 0.088495794730526 0.405756108064944 -0.891052697949059
! Port Impedance 50.00000000000000 0.00000000000000 50.00000000000000 0.00000000000000
61.0 0.432646577240623 -0.877917963134137 0.186026411476937 0.086435888578143 0.186026411476937 0.086435888578143 0.391971865407562 -0.896817187741404
! Port Impedance 50.00000000000000 0.00000000000000 50.00000000000000 0.00000000000000
62.0 0.419488263661507 -0.883899398401184 0.18879240935868 0.084314148928617 0.18879240935868 0.084314148928617 0.378233778236118 -0.90232353375524
! Port Impedance 50.00000000000000 0.00000000000000 50.00000000000000 0.00000000000000
63.0 0.406361787677426 -0.889640255658497 0.191479220266961 0.082134162337075 0.191479220266961 0.082134162337075 0.364546475648809 -0.907576748704783
! Port Impedance 50.00000000000000 0.00000000000000 50.00000000000000 0.00000000000000
64.0 0.393271417129968 -0.895144750527021 0.194086437519039 0.079899450875349 0.194086437519039 0.079899450875349 0.350914346024642 -0.912581861749235
! Port Impedance 50.00000000000000 0.00000000000000 50.00000000000000 0.00000000000000
65.0 0.380221216741884 -0.900417120701507 0.196613794413292 0.077613467702415 0.196613794413292 0.077613467702415 0.337341543381253 -0.917343909723927
! Port Impedance 50.00000000000000 0.00000000000000 50.00000000000000 0.00000000000000
66.0 0.367215053065791 -0.905461618640258 0.199061157195209 0.075279593134239 0.199061157195208 0.075279593134239 0.323831993870131 -0.9218679289467
! Port Impedance 50.00000000000000 0.00000000000000 50.00000000000000 0.00000000000000
67.00000000000001 0.354256599548267 -0.91028250470676 0.201428518081055 0.072901131190868 0.201428518081055 0.072901131190868 0.310389402375539 -0.926158947581849
! Port Impedance 50.00000000000000 0.00000000000000 50.00000000000000 0.00000000000000
68.0 0.341349341683427 -0.914884040749518 0.20371598836266 0.070481306598054 0.203715988362659 0.070481306598054 0.29701725918602 -0.930221978542951
! Port Impedance 50.00000000000000 0.00000000000000 50.00000000000000 0.00000000000000
69.0 0.32849658223207 -0.91927048410562 0.205923791614252 0.068023262220394 0.205923791614252 0.068023262220394 0.283718846709927 -0.934062012915099
! Port Impedance 50.00000000000000 0.00000000000000 50.00000000000000 0.00000000000000
70.0 0.315701446484472 -0.923446082013099 0.208052257019972 0.065530056902793 0.208052257019972 0.065530056902793 0.270497246208899 -0.937684013876486
! Port Impedance 50.00000000000000 0.00000000000000 50.00000000000000 0.00000000000000
71.00000000000001 0.302966887546707 -0.927415066416656 0.210101812838427 0.063004663697087 0.210101812838427 0.063004663697087 0.257355344525533 -0.941092911098852
! Port Impedance 50.00000000000000 0.00000000000000 50.00000000000000 0.00000000000000
72.00000000000001 0.290295691632208 -0.931181649151115 0.212072980018545 0.060449968450781 0.212072980018545 0.060449968450781 0.244295840783783 -0.944293595606111
! Port Impedance 50.00000000000000 0.00000000000000 50.00000000000000 0.00000000000000
73.00000000000001 0.277690483341941 -0.934750017486783 0.213966365979013 0.057868768735167 0.213966365979013 0.057868768735167 0.231321253042719 -0.947290915070325
! Port Impedance 50.00000000000000 0.00000000000000 50.00000000000000 0.00000000000000
74.0 0.26515373091823 -0.938124330020844 0.215782658561675 0.055263773090447 0.215782658561675 0.055263773090447 0.218433924886349 -0.950089669524267
! Port Impedance 50.00000000000000 0.00000000000000 50.00000000000000 0.00000000000000
75.0 0.252687751458734 -0.941308712898994 0.217522620167572 0.052637600565974 0.217522620167572 0.052637600565974 0.205636031934079 -0.952694607469959
! Port Impedance 50.00000000000000 0.00000000000000 50.00000000000000 0.00000000000000
76.0 0.240294716078563 -0.944307256351609 0.219187082082625 0.049992780534314 0.219187082082625 0.049992780534314 0.192929588258445 -0.955110422362758
! Port Impedance 50.00000000000000 0.00000000000000 50.00000000000000 0.00000000000000
77.0 0.22797665500987 -0.947124011528954 0.220776938998606 0.04733175275822 0.220776938998606 0.04733175275822 0.180316452696215 -0.957341749451352
! Port Impedance 50.00000000000000 0.00000000000000 50.00000000000000 0.00000000000000
78.0 0.215735462629365 -0.949762987620284 0.222293143733228 0.044656867691198 0.222293143733228 0.044656867691198 0.167798335048908 -0.959393162952802
! Port Impedance 50.00000000000000 0.00000000000000 50.00000000000000 0.00000000000000
79.0 0.203572902405769 -0.95222814924179 0.223736702152796 0.041970386991141 0.223736702152796 0.041970386991141 0.155376802152333 -0.961269173545712
! Port Impedance 50.00000000000000 0.00000000000000 50.00000000000000 0.00000000000000
80.0 0.191490611759746 -0.954523414079003 0.225108668298554 0.039274484229845 0.225108668298554 0.039274484229845 0.143053283819844 -0.962974226160549
! Port Impedance 50.00000000000000 0.00000000000000 50.00000000000000 0.00000000000000
81.0 0.179490106830376 -0.956652650769398 0.226410139717779 0.036571245779815 0.226410139717779 0.036571245779815 0.1308290786451 -0.964512698050589
! Port Impedance 50.00000000000000 0.00000000000000 50.00000000000000 0.00000000000000
82.0 0.167572787142877 -0.958619677011522 0.227642252999209 0.03386267186177 0.227642252999209 0.033862671861769 0.118705359662001 -0.965888897125489
! Port Impedance 50.00000000000000 0.00000000000000 50.00000000000000 0.00000000000000
